!Keysight Technologies N9926A: A.10.18
!Date: Saturday, 25 July 2020 17:18:36
!Timezone: 
!Model: N9926A
!Serial: MY57271140
!GPS Latitude: 
!GPS Longitude: 
!GPS TimeStamp: 0001-01-01 00:00:00Z
!GPS Seconds Since Last Read: 0
!CHECKSUM:1690907603
!Correction: S11(ON U)S21(ON U)S12(ON U)S22(ON U)
!S2P File: Measurements:S11,S21,S12,S22:
# Hz S DB R 50
500000	-0.352766655916954	0.940578768640395	21.4100493102364	-113.349983060616	-48.8092202672922	48.4160994975855	-1.62389520968373	151.299094472721	
750000	-0.300274951105201	2.61050151058408	24.4214795214435	-125.222287652596	-46.9121731961754	66.5270502523249	-2.15513995467494	121.526987149263	
1000000	-0.268451825479679	-0.346015837642926	25.7043406581077	-138.431640632884	-48.960544122807	108.166452668789	-3.38584693488085	105.099265472245	
1250000	-0.268040206530584	-1.71113754053567	26.9931994727036	-145.122186572089	-51.2534023223512	132.564524997122	-3.86171539730308	92.4797952851975	
1500000	-0.511989175940277	-1.47254455623434	27.5798375195546	-149.737303324951	-46.5793928529846	87.9867047529368	-3.54153479016544	77.5469546459856	
1750000	-0.183990953503563	-2.31368396941702	27.5166738697721	-151.278411428785	-48.6290543489624	90.9225397527236	-4.36782205119363	76.1229524988203	
2000000	-0.156615681956061	-3.0774790541914	28.2489049571426	-157.585848483065	-48.6783183579191	86.4777284160162	-4.21914615772702	65.3967206336167	
2250000	-0.477718051214139	-3.73743564337371	27.6186883793567	-158.090797699971	-47.9125377322983	75.8795804462557	-4.94100381807768	57.2139352413717	
2500000	-0.185084795025568	-8.19080590856274	28.5035472767029	-164.003332383256	-56.6752524826839	74.7046731750599	-5.50668499948684	52.8220058216172	
2750000	-0.233885094927575	-6.98222956521845	28.6225093272376	-165.050878086512	-42.790890468921	95.9857163272048	-5.52384278748774	51.9804294888413	
3000000	-0.073188864037018	-6.15901610214454	29.0646958997939	-163.037813532684	-48.4671234189374	69.7099845556266	-5.99998778932471	39.957145535371	
3250000	-0.0490620128756522	-9.23765087733968	28.8361534727715	-165.733904023378	-48.9373847381234	116.067736765987	-5.83782150870392	37.9034256231076	
3500000	-0.201095755600799	-6.47840173911012	28.9058861655391	-168.643952528674	-41.9555658016524	88.7452752325177	-6.34930122742263	33.3335315695115	
3750000	-0.0548936649331204	-7.60181774709954	28.593982203462	-167.668263720797	-43.510723411904	90.3142436945192	-5.93809927408294	25.7685568501886	
4000000	-0.213921070445037	-7.28996757685802	28.7152846619675	-170.952107056534	-44.4019233000729	106.445226662041	-6.37482963039495	25.6731986438073	
4250000	-0.0686742320124078	-11.1073214828867	28.6035079962707	-169.640640367916	-46.4937932554203	84.9825364585125	-6.3476650641145	20.0252254162095	
4500000	-0.466522316097801	-11.9901614904933	29.2393997036391	-175.124999117749	-40.1339401089754	92.5441897357505	-6.13092837780771	26.754336883828	
4750000	-0.257227459191644	-10.4600808133539	29.2365181426102	-173.813040366556	-43.0304721164298	71.3016615585339	-5.992404484975	21.5335440050776	
5000000	0.0505359454420115	-12.5200548668514	29.0505372606019	-178.968177056812	-39.4589513989372	60.4830332946771	-6.08551133224006	21.9243195031361	
5250000	0.0622833096355159	-12.6631076996324	28.8563541268164	-172.725499187282	-42.0043148444449	64.1749988956394	-5.95787850137126	11.3601305420131	
5500000	-0.449226863311549	-11.1012708390035	28.5315756790875	-177.865973360962	-43.3504769490924	96.9169858299862	-6.86230814262043	16.1310599444658	
5750000	-0.666013949969227	-9.39686103152373	29.0272096590262	-173.518395288001	-39.3769257312302	93.9527289571471	-6.49491286569622	9.61965771634146	
6000000	-0.491478685990354	-13.597500137854	29.6057038492429	-179.620698809431	-41.008675467116	85.9305222722764	-6.72647840971873	9.14236109860472	
6250000	-0.832667146830606	-15.6763223941551	28.5589662258476	179.810556699414	-40.827650475882	70.9018100400616	-5.62313678294994	10.7852832971962	
6500000	-0.441552095356135	-17.2468638837572	29.3703749836106	177.47930630971	-38.1825286371994	51.7080117783523	-5.71176858431786	5.89417945054968	
6750000	-0.627062662753858	-15.6193671783064	29.4425181000957	179.3242325657	-39.1743799548042	81.0769936530554	-5.98249045783947	7.71795776943352	
7000000	-0.280116583141175	-14.7583412092811	28.6308338314263	179.303656864459	-38.5869186696345	62.2785341462935	-5.90998664677348	4.36537195269207	
7250000	-0.7335839714835	-13.8828266704031	28.2771893315581	-178.798102052326	-40.7742328697856	81.9989659458296	-6.37412518853311	0.433767310455795	
7500000	-0.314927711196442	-16.130307392392	29.1455726519325	-178.611261510763	-38.2670062672653	66.1766932004506	-6.76741071547103	0.207297085148215	
7750000	-0.989638520676335	-15.6052922578539	28.5304571896604	177.997634620986	-39.3918337467587	81.9909331066391	-6.62446547592671	4.69471425667485	
8000000	-0.843661330751155	-16.1161338807611	28.0183162497997	175.691779751222	-38.8505001891541	72.281475213346	-7.0829409152102	-0.0806852486634396	
8250000	-0.898696051389609	-12.2676606322644	28.1490673215545	176.131298079137	-37.5464597194583	69.6647788424232	-6.91439718525741	3.51125769419431	
8500000	-0.882378954827177	-14.600339333641	28.6178509585405	178.651925474061	-38.6043166717727	77.7885788252057	-6.62490522199856	-0.00952528287559372	
8750000	-1.22084414484893	-21.5985991637321	28.7850185547521	174.249354095079	-40.5659815612689	58.3193396414718	-7.77775679182702	-3.42183891722548	
9000000	-0.965043732661503	-21.4690902296977	28.7078441675189	172.169695496327	-34.9646579490175	54.9412154054628	-6.42966735103292	-9.17165172284239	
9250000	-0.863650936717542	-18.4402233495973	28.5311697741496	175.258164248761	-36.0012870806902	68.9184913958129	-6.39308156264373	-5.59267329808513	
9500000	-0.856123508105009	-20.5646297927714	28.4395458792208	175.360854887479	-36.2068807852778	46.2525795339209	-6.82624283948315	-9.62401220547516	
9750000	-1.16451076289307	-18.6145747760666	28.2543616034831	174.87592985675	-35.2940156056662	53.2487181452485	-6.27224879218193	-6.67570841048206	
10000000	-1.42254124731125	-21.0499376976963	28.2511941246183	173.708084838698	-39.7805647248571	75.8662620992849	-8.30446042658501	-10.9297112637735	
10250000	-0.956055871568881	-22.302989906777	28.6093095677616	170.443981841318	-37.34756671866	61.2022863174533	-7.5819757555315	-14.1312407111397	
10500000	-1.22341067012698	-26.5389853553271	28.6003000979246	173.634075501394	-36.3458129967938	57.3748308126107	-8.31806574076364	-12.8529910441602	
10750000	-1.45181569551101	-21.2092592184592	28.5456064413417	173.795097127402	-35.9294048341559	58.2867253887419	-7.69065228390314	-8.82483139822857	
11000000	-1.36929352019563	-22.7343520321265	28.5207954827649	171.684412995004	-35.9891777296078	63.3199825034197	-7.16277772154924	-10.3293686714754	
11250000	-1.18135692598402	-22.4235246593034	28.2256038271886	174.572153260083	-35.1877067153247	50.1402907403385	-7.31903755072729	-14.4998663860486	
11500000	-1.32036635266576	-20.9986419487959	28.0622838202791	172.824951894547	-35.1135665947269	65.714902602305	-7.80661923472894	-8.85952013213898	
11750000	-2.08645764766701	-23.1353995498854	27.9914845932077	169.250668380535	-36.1993054638679	53.5070927127952	-8.47169678256029	-8.59054728527893	
12000000	-1.31351722150496	-21.5092550940049	28.2188648729549	173.852379603216	-34.990567574706	57.3859593868017	-6.50454629671684	-12.877735794391	
12250000	-1.37821143771443	-23.4560683868219	28.0200166644769	172.995943751569	-35.4748327253817	52.5503558651709	-7.39238515509136	-11.7810608660792	
12500000	-1.53448833738755	-24.9247382059457	28.1157854325342	171.466736723783	-34.5499057553681	52.0573562673954	-8.0850494923289	-14.7983247454143	
12750000	-1.70484274344546	-25.18809661704	28.2379927287729	169.612724867637	-35.0300155717912	60.969253377571	-7.51058556284448	-18.7054468805609	
13000000	-1.68154361292941	-22.0282481976001	28.4168655120258	173.605990643924	-34.8694575187857	60.3198773192875	-7.51610844869852	-18.8667023967137	
13250000	-1.93301982429156	-27.5389128871461	28.5295535583271	170.720908391544	-33.9613121013474	52.9679284048982	-7.94495905494496	-23.4711714638117	
13500000	-2.25195267508087	-23.6545759253376	27.989810577382	170.681964682355	-35.4364455482918	56.9757468253957	-8.71179187555074	-14.656649840054	
13750000	-2.16502546425435	-24.60537587234	28.4903295793874	170.406285299936	-33.8213189315521	58.8219236817465	-7.0344881272611	-15.9085538891565	
14000000	-2.37570206330341	-29.4199740047092	28.0359779371154	161.052425561591	-32.1764761655851	43.1635904620235	-8.69999883479088	-18.8152735042541	
14250000	-1.5437845412351	-25.4300547659027	28.3197905209878	170.190596508605	-33.637212328882	53.8749265114581	-7.6735126905838	-16.8282274230187	
14500000	-1.40162960144401	-26.7410077087146	28.04207322918	168.961652412137	-32.915207996007	63.425980631689	-8.12216854413442	-21.855881468314	
14750000	-2.4020100706007	-26.0448389367714	27.9191243964817	167.510315934295	-34.2460913832865	55.4740480528189	-9.18897618169894	-19.3704486667137	
15000000	-2.4891812335897	-24.0995329212752	27.848389930109	167.486059002194	-32.8575482831692	51.9852074144078	-8.93105729196004	-20.6699621665454	
15250000	-2.36106737819168	-27.6774007785061	28.1903542243594	166.977558271098	-35.2282343818506	54.6880883014427	-8.94341649522908	-24.2014038205717	
15500000	-2.21637792201712	-28.4174597097416	28.3193894246742	168.660001460048	-34.4653528699693	49.1582817934945	-8.58967030971628	-31.2338226694006	
15750000	-2.38068792803558	-31.377966003472	28.2527611230129	168.172056904078	-34.195160528753	31.1338593472576	-10.0604872677558	-32.5206896338089	
16000000	-3.02252448288392	-26.54487567589	27.883111760648	164.390302509261	-34.6946294334563	61.508537475524	-9.86945053921491	-20.6468097694631	
16250000	-1.47165177427843	-33.3002877518072	28.1089832148726	166.431600481496	-30.8278802847485	49.3371780855671	-8.1090571544888	-29.274893947702	
16500000	-2.19066670213528	-28.7321952287509	27.9834219411375	164.870215030674	-31.1856133479562	43.1282217320875	-9.48666367394742	-29.2046238639501	
16750000	-2.98574457604359	-30.192340655396	27.90013848065	164.905367832102	-33.4531985175611	41.9927815960974	-10.659174397408	-20.911841854559	
17000000	-1.8423524038016	-30.9125105017739	28.7863444437585	165.729831988746	-32.3173320624812	56.6141403507916	-8.55811519016893	-35.1061293317353	
17250000	-2.99679651498021	-29.63147528593	28.2060207124278	166.491991510008	-34.9149102478476	32.8284785949157	-10.2014230590655	-27.5300364717557	
17500000	-2.96403783232573	-33.6656357712502	28.0618931362925	163.032611317743	-33.1190882148061	44.7481701363609	-9.31872030940451	-32.7413904689498	
17750000	-1.99939696844519	-31.251472707486	27.9919867769896	168.59751165437	-30.8884784509117	52.2769962848794	-7.9924376050738	-27.3691633582385	
18000000	-3.30777327707193	-32.5780606369293	28.0177105875831	166.924192753743	-36.4014917904568	38.5729016622612	-10.1433095414684	-34.811579192879	
18250000	-2.75032079041618	-28.5750815395723	26.9636583839005	164.80533709459	-32.4099104113186	48.5057107187782	-8.78675842355369	-22.6640584477035	
18500000	-2.83303130942267	-31.0217414802986	28.287764889557	165.404576109537	-32.2813395350049	50.5162007450821	-8.61108790991885	-25.786817380483	
18750000	-2.41033922132976	-26.4605096708173	27.4622918153937	165.476279401984	-32.0363332229094	51.5133939400499	-8.08548946859703	-26.5791815889563	
19000000	-2.96506079852582	-27.3095309958609	27.769832309032	165.633902889976	-32.533707396054	62.2579912325373	-10.2823488538212	-30.0217708640724	
19250000	-3.46387635992302	-30.7793852304895	27.52350088944	162.775331726395	-32.9335827594125	39.8661567042311	-9.92006627145108	-28.3075804778088	
19500000	-3.02642138602783	-29.7362686440112	27.3819008882402	166.312880228681	-32.0651800098811	45.4273323993811	-8.99798316253425	-28.531582745074	
19750000	-3.00145555558545	-28.6429023347348	27.62139595427	165.690307760283	-33.5289444611778	43.7199036367796	-9.80445716157421	-31.0922178379367	
20000000	-3.51687570787052	-30.1860796055062	27.6100359738695	165.470612964873	-34.1625661639506	42.5784518050429	-11.2687746954984	-25.4618908747492	
20250000	-2.90780472222579	-33.3968315571176	27.5283240138203	165.524340364098	-32.7664427915564	48.4313371777727	-9.88106731547328	-30.1314700011245	
20500000	-3.33421722174524	-31.6312534175886	27.5256460833811	164.545215638276	-31.3977339167659	48.7400608871532	-9.00728128473387	-30.4964038507242	
20750000	-3.66790748214273	-36.5226301916886	27.6110861816178	158.927359909164	-32.2379792633475	40.5765936700027	-10.4530694842947	-35.2400907339872	
21000000	-2.31856467851584	-31.6844509646967	27.4720292320882	165.046248408206	-31.9566912310579	41.029348572836	-8.05412541122284	-32.7038693160421	
21250000	-3.70045918136905	-31.2013157374137	27.7165704704589	164.260943938603	-32.6906327516364	42.0640584315704	-10.4277381349028	-29.6456090028968	
21500000	-3.89864933618814	-32.6730094935828	27.4478674284782	162.162891267452	-33.0986270147104	38.4377144443435	-11.2086446226179	-28.4588119360927	
21750000	-3.76210133584632	-32.2299322244414	27.6176427530406	164.840683796748	-33.6702884434808	38.1956773300625	-10.7446393588329	-35.222714380799	
22000000	-3.53158997600661	-35.8400700760415	27.8598595303444	165.682044222398	-31.3961982865024	36.0519710866753	-10.7362937395389	-39.3690795007153	
22250000	-3.79320519660612	-33.7511638873097	27.2175502505002	162.717708069789	-31.8788595176952	42.7952214847885	-11.0399643764778	-27.7999993999053	
22500000	-3.78657705907862	-33.6725066988402	27.1037109452253	162.70487697372	-31.9128693798602	38.5686039752286	-11.9626167199368	-26.3456388737137	
22750000	-2.74099159418855	-32.9912550965198	27.6118955137924	165.769526410694	-31.5643721494472	45.2578109667197	-10.0708946659234	-39.2850641216357	
23000000	-3.58904786230374	-37.1733824847946	27.354648884414	162.87129997345	-31.831480004271	32.2143013840188	-10.053073318568	-42.7156020463521	
23250000	-4.16634110684562	-31.7324914160925	27.5794684839226	163.194685469882	-33.1837981759696	33.7855155949288	-11.19040761343	-25.9886019542754	
23500000	-4.90695319498929	-33.3898301743342	27.0397336643445	162.053239584184	-32.0247824343613	21.6737674074705	-11.8683889964606	-40.4900039802682	
23750000	-3.77098906219717	-29.8669295822156	27.1988429191987	164.237233506186	-30.7305148430947	40.0866834406632	-9.0983105433456	-29.7643706962379	
24000000	-2.54410695953858	-38.6186591406092	28.2050037168059	163.595831894282	-31.2155592351625	47.2759217723954	-9.22392177626545	-39.5019511009473	
24250000	-3.33859066160708	-36.8837095600392	27.1375467380221	163.500377098204	-31.780889945286	45.6249989413917	-11.3661703711424	-36.9939420394559	
24500000	-4.17168918289075	-32.9721600021276	27.6227343671724	161.278392805464	-31.3787024350516	41.9312940642586	-10.0690086811494	-42.7043092308445	
24750000	-4.26832761359013	-29.321505259087	27.15418186808	161.997407153783	-33.92411752132	51.3849225822562	-11.4595984783069	-29.280924101887	
25000000	-3.89620315486723	-34.4212774185962	26.9675752537604	165.58699302941	-30.4283006535157	39.8318116883001	-9.9603572711298	-37.7613884783999	
25250000	-4.18769032100381	-38.2445108029277	27.4780565957382	163.881169534023	-32.1546091294179	36.452567396969	-11.0348512536565	-44.5396781242008	
25500000	-4.2052477164266	-32.4247681851221	27.2945215150529	164.111334819345	-32.9765416069557	47.423468973007	-10.9381833373204	-27.4509481732771	
25750000	-3.99628510210047	-40.475412180102	27.3503894888511	162.917611698658	-29.6769581770404	40.2640395826451	-9.83088782999794	-43.9654444901964	
26000000	-4.02493424015687	-35.1139105756631	27.1372637760959	163.232692531801	-31.7325656202625	48.1291636696911	-10.6592328040619	-40.157713680241	
26250000	-4.58188449664473	-35.4663049958556	27.5091382439334	163.056634806538	-32.2978206966636	32.0866936918069	-10.8977014914886	-45.3360058459081	
26500000	-5.23216850053183	-33.8048655024243	26.9626611613299	158.936589255791	-33.2321377752263	41.2716435582951	-12.2434935312554	-36.2514774803881	
26750000	-5.3901101041528	-36.7327186390286	26.9731202110394	158.116737489109	-32.6384383234951	32.8375528330663	-12.4882950502707	-36.6672470537533	
27000000	-5.32406580724747	-33.1105988973966	26.8344120655974	161.768776555586	-33.2291808260618	29.66293778363	-13.5634815410672	-43.0995170058063	
27250000	-5.29258054113541	-40.9677583152005	26.8919381070145	160.337909603057	-31.539956176037	24.4526617346785	-15.3393522491465	-54.5634057360789	
27500000	-4.84378740729996	-33.7690125913254	26.6619527899804	161.244399078527	-31.5809220048043	36.6675718906743	-11.1592696883058	-41.2735604112285	
27750000	-4.29584559968362	-33.537811233603	26.8738578117167	165.367886217471	-33.0911606170206	29.0315368105759	-11.8448421028058	-35.1456576261746	
28000000	-4.90902975742742	-36.5516265740534	26.8521001055025	161.813028466831	-30.690621816029	30.4307356479241	-11.6175645126185	-38.0394998949739	
28250000	-4.58103795901593	-38.6964052468576	27.1390475061048	162.386383351928	-30.7426975538232	38.1088391132931	-10.3049336587476	-44.3631848352219	
28500000	-5.013393895637	-36.7094056516854	27.1880277356518	159.682329784424	-31.5859930713862	40.8137403625456	-13.0973365703098	-36.668301762667	
28750000	-4.46946041965702	-41.1557716304859	27.3354135897834	161.588122351761	-30.2187157710066	38.7883436382598	-10.6380561444492	-52.8676406794033	
29000000	-5.6143327181579	-51.0291932926344	27.3347573447622	160.601961832849	-30.4430271946722	19.2539900041851	-11.9071482372313	-73.3759721304543	
29250000	-3.90242124116663	-33.9326738433559	26.4388766528202	163.26569238641	-32.5141774819429	45.9291436840769	-9.96446562594347	-26.2480822870037	
29500000	-4.38733575144727	-37.159440697455	27.1752197421596	163.228993615626	-31.2392190122433	40.3239963036497	-10.7093394192395	-36.7564383969034	
29750000	-5.00263280078375	-38.1100218440008	26.7577760331522	159.357771025049	-30.5075706976079	42.2855370400915	-13.3793102834115	-39.3519625951985	
30000000	-4.75987506688092	-29.0436138393233	26.7457335578688	162.171573843537	-33.4354930242273	41.0605598752689	-11.0830491732985	-32.0101477573584	
30250000	-4.85755075239692	-36.2384608467271	26.7890071926083	160.146032197677	-32.1331027863752	42.7940882219576	-13.07337285112	-41.1851288528916	
30500000	-5.02780143481815	-34.4368731611921	26.8049138949709	158.669213150142	-31.2872815529222	28.6319695877118	-12.0971964620397	-32.5766177842421	
30750000	-4.97707383210346	-44.1550749184739	27.218383225863	160.207945884896	-30.5192456264638	23.5857458886338	-13.6753922677551	-57.0580316365513	
31000000	-4.87557443754012	-38.7642568291299	26.9740607213108	162.939637645324	-31.5928568781555	35.8841832577931	-11.731144782511	-43.7168220124645	
31250000	-4.89684738495163	-35.8676066322702	26.801652543664	163.541387639386	-32.1904806448348	33.2632186319825	-12.1754691716396	-35.2957008384102	
31500000	-4.84420897631966	-32.6550456764191	26.947162365579	161.927258000128	-31.4887619255263	38.4850582717931	-11.1358870747705	-33.0144116319714	
31750000	-5.19851807180491	-41.7369158439753	26.6778410873802	162.953457126938	-30.9289587799584	27.120806478369	-13.5711686289647	-40.3219149165655	
32000000	-4.22300405205882	-42.8752921437472	27.1673850842723	162.831925099064	-31.217387701082	42.4203482836109	-10.7602420671112	-54.9266961902987	
32250000	-6.16158760973048	-35.9216438833888	26.8293553857229	160.416284213449	-31.557192067397	24.968444432153	-15.6414314914028	-41.2885862643929	
32500000	-4.9688482998257	-30.250178375526	26.4391173340205	159.810482016853	-31.5557503568017	40.0408685672997	-13.4778346696867	-27.2490828744347	
32750000	-5.78539059239952	-41.3357545794027	26.9134082466074	156.577327842545	-30.5158118512526	33.977664961693	-14.3485798835927	-48.3225528328926	
