<Qucs Dataset 0.0.19>
<indep frequency 201>
  +5.00000000000000000000e+06
  +5.08575705949626490474e+06
  +5.17298497364322002977e+06
  +5.26170896967482194304e+06
  +5.35195470750770904124e+06
  +5.44374828716232068837e+06
  +5.53711625631129555404e+06
  +5.63208561795733962208e+06
  +5.72868383824278600514e+06
  +5.82693885439308267087e+06
  +5.92687908279654011130e+06
  +6.02853342722265049815e+06
  +6.13193128718136250973e+06
  +6.23710256642572768033e+06
  +6.34407768160038255155e+06
  +6.45288757103836908937e+06
  +6.56356370370882004499e+06
  +6.67613808831811696291e+06
  +6.79064328256715275347e+06
  +6.90711240256735775620e+06
  +7.02557913241823017597e+06
  +7.14607773394913319498e+06
  +7.26864305662817601115e+06
  +7.39331054764105100185e+06
  +7.52011626214273553342e+06
  +7.64909687368501722813e+06
  +7.78028968482287786901e+06
  +7.91373263790278509259e+06
  +8.04946432603601925075e+06
  +8.18752400426020566374e+06
  +8.32795160089229512960e+06
  +8.47078772907624207437e+06
  +8.61607369852876849473e+06
  +8.76385152748655527830e+06
  +8.91416395485837571323e+06
  +9.06705445258562639356e+06
  +9.22256723821488022804e+06
  +9.38074728768606111407e+06
  +9.54164034833996556699e+06
  +9.70529295214887708426e+06
  +9.87175242917409911752e+06
  +1.00410669212543163449e+07
  +1.02132853959287144244e+07
  +1.03884576605989150703e+07
  +1.05666343769337963313e+07
  +1.07478670755213964731e+07
  +1.09322081707720849663e+07
  +1.11197109760773777962e+07
  +1.13104297192287258804e+07
  +1.15044195581007711589e+07
  +1.17017365966035798192e+07
  +1.19024379009084906429e+07
  +1.21065815159522555768e+07
  +1.23142264822242353112e+07
  +1.25254328528415542096e+07
  +1.27402617109170779586e+07
  +1.29587751872252970934e+07
  +1.31810364781712200493e+07
  +1.34071098640674147755e+07
  +1.36370607277245726436e+07
  +1.38709555733609050512e+07
  +1.41088620458358600736e+07
  +1.43508489502137284726e+07
  +1.45969862716628089547e+07
  +1.48473451956958398223e+07
  +1.51019981287576165050e+07
  +1.53610187191656865180e+07
  +1.56244818784102350473e+07
  +1.58924638028192650527e+07
  +1.61650419955953881145e+07
  +1.64422952892305683345e+07
  +1.67243038683053124696e+07
  +1.70111492926788888872e+07
  +1.73029145210773088038e+07
  +1.75996839350858777761e+07
  +1.79015433635531999171e+07
  +1.82085801074138395488e+07
  +1.85208829649366401136e+07
  +1.88385422574061267078e+07
  +1.91616498552443869412e+07
  +1.94902992045809440315e+07
  +1.98245853542784005404e+07
  +2.01646049834215268493e+07
  +2.05104564292779229581e+07
  +2.08622397157381512225e+07
  +2.12200565822437331080e+07
  +2.15840105132112503052e+07
  +2.19542067679611518979e+07
  +2.23307524111598208547e+07
  +2.27137563437838628888e+07
  +2.31033293346153721213e+07
  +2.34995840522774569690e+07
  +2.39026350978191904724e+07
  +2.43125990378594286740e+07
  +2.47295944382991418242e+07
  +2.51537418986118845642e+07
  +2.55851640867224819958e+07
  +2.60239857744838297367e+07
  +2.64703338737623058259e+07
  +2.69243374731419533491e+07
  +2.73861278752583041787e+07
  +2.78558386347724795341e+07
  +2.83336055969965904951e+07
  +2.88195669371816627681e+07
  +2.93138632004793584347e+07
  +2.98166373425891399384e+07
  +3.03280347711025401950e+07
  +3.08482033875565864146e+07
  +3.13772936302085034549e+07
  +3.19154585175440236926e+07
  +3.24628536925319470465e+07
  +3.30196374676377512515e+07
  +3.35859708706092163920e+07
  +3.41620176910473480821e+07
  +3.47479445277760773897e+07
  +3.53439208370243608952e+07
  +3.59501189814347624779e+07
  +3.65667142799125015736e+07
  +3.71938850583295747638e+07
  +3.78318127010984569788e+07
  +3.84806817036303952336e+07
  +3.91406797256934121251e+07
  +3.98119976456855237484e+07
  +4.04948296158387660980e+07
  +4.11893731183700934052e+07
  +4.18958290225952789187e+07
  +4.26144016430224925280e+07
  +4.33452987984421849251e+07
  +4.40887318720304667950e+07
  +4.48449158724833875895e+07
  +4.56140694961997121572e+07
  +4.63964151905301883817e+07
  +4.71921792181117236614e+07
  +4.80015917223049402237e+07
  +4.88248867937539666891e+07
  +4.96623025380880460143e+07
  +5.05140811447841078043e+07
  +5.13804689572106003761e+07
  +5.22617165438725128770e+07
  +5.31580787708784714341e+07
  +5.40698148756507560611e+07
  +5.49971885418993979692e+07
  +5.59404679758824035525e+07
  +5.68999259839737340808e+07
  +5.78758400515618845820e+07
  +5.88684924233015105128e+07
  +5.98781701847416162491e+07
  +6.09051653453537002206e+07
  +6.19497749229839742184e+07
  +6.30123010297540873289e+07
  +6.40930509594351053238e+07
  +6.51923372763201966882e+07
  +6.63104779056214019656e+07
  +6.74477962254170328379e+07
  +6.86046211601760387421e+07
  +6.97812872758864462376e+07
  +7.09781348768152743578e+07
  +7.21955101039282828569e+07
  +7.34337650349974483252e+07
  +7.46932577864256501198e+07
  +7.59743526168177276850e+07
  +7.72774200323278754950e+07
  +7.86028368938139230013e+07
  +7.99509865258295387030e+07
  +8.13222588274856805801e+07
  +8.27170503852135390043e+07
  +8.41357645874616205692e+07
  +8.55788117413597702980e+07
  +8.70466091913844645023e+07
  +8.85395814400591999292e+07
  +9.00581602707251310349e+07
  +9.16027848724172711372e+07
  +9.31739019668827801943e+07
  +9.47719659377774298191e+07
  +9.63974389620782136917e+07
  +9.80507911437499374151e+07
  +9.97325006497040241957e+07
  +1.01443053848089620471e+08
  +1.03182945448956325650e+08
  +1.04952678647329539061e+08
  +1.06752765268739834428e+08
  +1.08583725917248263955e+08
  +1.10446090126010611653e+08
  +1.12340396510423839092e+08
  +1.14267192923899546266e+08
  +1.16227036616308763623e+08
  +1.18220494395144641399e+08
  +1.20248142789449110627e+08
  +1.22310568216551139951e+08
  +1.24408367151664897799e+08
  +1.26542146300396621227e+08
  +1.28712522774210289121e+08
  +1.30920124268902748823e+08
  +1.33165589246140047908e+08
  +1.35449567118107348680e+08
  +1.37772718435325533152e+08
  +1.40135715077689617872e+08
  +1.42539240448783427477e+08
  +1.44983989673527210951e+08
  +1.47470669799214929342e+08
  +1.50000000000000029802e+08
</indep>
<dep dBS11 frequency>
  -1.20464160149049804243e-05
  -1.43980028881754285036e-05
  -1.72136734981151467592e-05
  -2.05862079118581120789e-05
  -2.46272200674842211329e-05
  -2.94710496424948364979e-05
  -3.52794747987590171109e-05
  -4.22474231028068225027e-05
  -5.06098970972328329396e-05
  -6.06503793083882844495e-05
  -7.27110408097909058844e-05
  -8.72051503765152249709e-05
  -1.04632171329381207692e-04
  -1.25596144038259762169e-04
  -1.50828089284166255452e-04
  -1.81213337050253891916e-04
  -2.17824895275495346953e-04
  -2.61964233423802423609e-04
  -3.15211178724099567484e-04
  -3.79485024557517738354e-04
  -4.57119450467763214531e-04
  -5.50954476269186399148e-04
  -6.64449450677443722267e-04
  -8.01822046741007977283e-04
  -9.68219453351440570085e-04
  -1.16992947672699696207e-03
  -1.41464117990975409705e-03
  -1.71176709288477658238e-03
  -2.07284205256731213565e-03
  -2.51201754361260855622e-03
  -3.04667521922830347031e-03
  -3.69818934994991252788e-03
  -4.49287561663760763586e-03
  -5.46317335631810174768e-03
  -6.64912062641596999374e-03
  -8.10019694935247384915e-03
  -9.87762818144725072977e-03
  -1.20572726643990366102e-02
  -1.47332389459968945977e-02
  -1.80224244407392632239e-02
  -2.20702132496231467895e-02
  -2.70576320114956012097e-02
  -3.32103372726159432049e-02
  -4.08098984485095947483e-02
  -5.02079483716247332303e-02
  -6.18438984454675808045e-02
  -7.62670541578486516077e-02
  -9.41641099118713936766e-02
  -1.16393130560138530205e-01
  -1.44025205022376284747e-01
  -1.78394923738726451923e-01
  -2.21160587689933768596e-01
  -2.74374452216824493700e-01
  -3.40562131522756439406e-01
  -4.22808267303941498483e-01
  -5.24842402171482813600e-01
  -6.51114482759137747081e-01
  -8.06843636262800867343e-01
  -9.98017561971201949689e-01
  -1.23131489902631208189e+00
  -1.51392250341501855004e+00
  -1.85322793985860245769e+00
  -2.25638826967475880636e+00
  -2.72980920662834236623e+00
  -3.27860659137272847374e+00
  -3.90614997992746060262e+00
  -4.61378899273368414669e+00
  -5.40082853801141826722e+00
  -6.26475777515777387805e+00
  -7.20167328782740678861e+00
  -8.20679445354426917447e+00
  -9.27496028928788085466e+00
  -1.04010160110726097571e+01
  -1.15800269171508141142e+01
  -1.28072793842372316675e+01
  -1.40780326187138413729e+01
  -1.53869668023754400110e+01
  -1.67272369221857069022e+01
  -1.80890017316087963195e+01
  -1.94572974951889960948e+01
  -2.08092761356578463960e+01
  -2.21113435675050915563e+01
  -2.33178579714579754523e+01
  -2.43745076576706445337e+01
  -2.52294077324678767127e+01
  -2.58502651386844206627e+01
  -2.62380243416391323308e+01
  -2.64263095158030338894e+01
  -2.64671171220539811486e+01
  -2.64137783949970312847e+01
  -2.63103335860468448004e+01
  -2.61884987197341310150e+01
  -2.60690673448168723780e+01
  -2.59647073278785072148e+01
  -2.58825873824043668492e+01
  -2.58263536377295039870e+01
  -2.57974652472439025530e+01
  -2.57960387391565930670e+01
  -2.58213519417503931663e+01
  -2.58721216488888536844e+01
  -2.59466319985685309746e+01
  -2.60427624371584620633e+01
  -2.61579454393734387452e+01
  -2.62890730574310218515e+01
  -2.64323663507216650714e+01
  -2.65832220600966984136e+01
  -2.67360564371657893901e+01
  -2.68841768747717466681e+01
  -2.70197268192809758602e+01
  -2.71337645431825507103e+01
  -2.72165433375564838059e+01
  -2.72580464705546248183e+01
  -2.72487816525713526516e+01
  -2.71807548267255008057e+01
  -2.70484449863042186735e+01
  -2.68495402385189549932e+01
  -2.65852219107942566723e+01
  -2.62599080493324521512e+01
  -2.58805368785363576478e+01
  -2.54555992834135267344e+01
  -2.49941610775434988057e+01
  -2.45050576646276141446e+01
  -2.39963461049422477345e+01
  -2.34750133150482014344e+01
  -2.29468887664804164217e+01
  -2.24166946636289949879e+01
  -2.18881732759363458740e+01
  -2.13642467342983479739e+01
  -2.08471807082482563089e+01
  -2.03387362040283470321e+01
  -1.98403025098715914964e+01
  -1.93530096813537220157e+01
  -1.88778218914838760156e+01
  -1.84156143598243957626e+01
  -1.79672370848451592451e+01
  -1.75335686746768395494e+01
  -1.71155634776584903989e+01
  -1.67142951214479467126e+01
  -1.63309995824721134738e+01
  -1.59671211043338985291e+01
  -1.56243647432500551986e+01
  -1.53047601441695935165e+01
  -1.50107424983780717298e+01
  -1.47452587472695295645e+01
  -1.45119103709382972767e+01
  -1.43151491707670750486e+01
  -1.41605503554876541727e+01
  -1.40551996379509791524e+01
  -1.40082505618263688518e+01
  -1.40317386515336988140e+01
  -1.41417839930528721482e+01
  -1.43603696393121609276e+01
  -1.47179001673716101095e+01
  -1.52564472404551754181e+01
  -1.60315972877570906974e+01
  -1.71001685595416610397e+01
  -1.84279431643230537929e+01
  -1.94718023429369893051e+01
  -1.86653533589557980577e+01
  -1.56790396883347700197e+01
  -1.21611997737991259783e+01
  -8.95788724463877628068e+00
  -6.24870347367741185707e+00
  -4.07741286179075501650e+00
  -2.45724772634146404471e+00
  -1.35206630655035286992e+00
  -6.68238354329649841823e-01
  -2.85509445771351677568e-01
  -9.50309382420009007841e-02
  -1.70450073465864132549e-02
  -6.21806038691978687181e-05
  -1.32176381875943119160e-02
  -3.88325405673225487746e-02
  -6.71349119737274235842e-02
  -9.29587831030582179004e-02
  -1.13797323798495178537e-01
  -1.28684341752145076088e-01
  -1.37555502870201740162e-01
  -1.40877531172316855512e-01
  -1.39422268705330032468e-01
  -1.34117083551059890212e-01
  -1.25936519774303090635e-01
  -1.15820039710678529543e-01
  -1.04611407500546510496e-01
  -9.30193706813683407475e-02
  -8.15991931993729352479e-02
  -7.07525974142786534538e-02
  -6.07416661573164234911e-02
  -5.17112946151828192787e-02
  -4.37150595432785060712e-02
  -3.67405178314196070866e-02
  -3.07314118766204846800e-02
  -2.56056063937574393541e-02
  -2.12685813841581791706e-02
  -1.76229149892494878216e-02
  -1.45744726262617314838e-02
  -1.20360777160499823890e-02
  -9.92937074187583146312e-03
  -8.18543891899850897809e-03
  -6.74466334763068435521e-03
  -5.55610787204074973999e-03
</dep>
<dep dBS21 frequency>
  -5.55692705648802132146e+01
  -5.47948277485443142609e+01
  -5.40191161075699071148e+01
  -5.32420898592233271529e+01
  -5.24637015137030573442e+01
  -5.16839018084735712932e+01
  -5.09026396403091681009e+01
  -5.01198619950651504951e+01
  -4.93355138752250255152e+01
  -4.85495382253089928781e+01
  -4.77618758552783333471e+01
  -4.69724653621311105667e+01
  -4.61812430499619281932e+01
  -4.53881428488559777179e+01
  -4.45930962331096552020e+01
  -4.37960321394236586912e+01
  -4.29968768859069072619e+01
  -4.21955540929709798093e+01
  -4.13919846074967381355e+01
  -4.05860864320341647726e+01
  -3.97777746612709890428e+01
  -3.89669614286009675652e+01
  -3.81535558663701337423e+01
  -3.73374640843168634774e+01
  -3.65185891719003734579e+01
  -3.56968312316937073092e+01
  -3.48720874528832780470e+01
  -3.40442522362657200574e+01
  -3.32132173850975149776e+01
  -3.23788723798918312013e+01
  -3.15411047599823000098e+01
  -3.06998006406469734486e+01
  -2.98548454021411799886e+01
  -2.90061245965512846112e+01
  -2.81535251304840841158e+01
  -2.72969367969241787364e+01
  -2.64362542489597593942e+01
  -2.55713795325398010050e+01
  -2.47022253262533340035e+01
  -2.38287190748479247304e+01
  -2.29508082516241103122e+01
  -2.20684670449841178197e+01
  -2.11817048384120383275e+01
  -2.02905769430129936381e+01
  -1.93951981487735167775e+01
  -1.84957597846701169431e+01
  -1.75925511152142668436e+01
  -1.66859860427058350751e+01
  -1.57766362110819642339e+01
  -1.48652716830910058832e+01
  -1.39529103263567364479e+01
  -1.30408767969081438309e+01
  -1.21308714008210678514e+01
  -1.12250479333656549841e+01
  -1.03260975682764062356e+01
  -9.43733270232634957608e+00
  -8.56276013989831596973e+00
  -7.70712721679815793152e+00
  -6.87591815732507960490e+00
  -6.07527297793632570233e+00
  -5.31180082728755476040e+00
  -4.59226803865266131055e+00
  -3.92316197474840144821e+00
  -3.31016478953148629572e+00
  -2.75760920460998804060e+00
  -2.26801640361733847229e+00
  -1.84181726714087456998e+00
  -1.47732407926745068494e+00
  -1.17095930957316496368e+00
  -9.17684850532487716990e-01
  -7.11534509746614807213e-01
  -5.46146930363260341146e-01
  -4.15220049142050462443e-01
  -3.12845564614606219678e-01
  -2.33716731623881707192e-01
  -1.73226196723535036393e-01
  -1.27481187028995857080e-01
  -9.32643117184142472764e-02
  -6.79638383830470788061e-02
  -4.94910610548194851432e-02
  -3.61963901121650014070e-02
  -2.67909932894158341055e-02
  -2.02773869597193227843e-02
  -1.58901431784616194165e-02
  -1.30465505788107533069e-02
  -1.13063647780978389357e-02
  -1.03394812177926599672e-02
  -9.90029830762997886673e-03
  -9.80760320685745284885e-03
  -9.92893857933783985370e-03
  -1.01685559199884076320e-02
  -1.04582072686734018491e-02
  -1.07501611356526083352e-02
  -1.10119456553169903223e-02
  -1.12224214243885102305e-02
  -1.13688691232715875790e-02
  -1.14448446794362113099e-02
  -1.14486094950668939457e-02
  -1.13819871822154819463e-02
  -1.12495331976294483251e-02
  -1.10579313825929330395e-02
  -1.08155530786884050698e-02
  -1.05321313693487912666e-02
  -1.02185160446734597806e-02
  -9.88648488441244352454e-03
  -9.54859443364236559759e-03
  -9.21805911728457855192e-03
  -8.90865171096512711846e-03
  -8.63462118084596004508e-03
  -8.41062598110098313953e-03
  -8.25168225410263453390e-03
  -8.17312717237558480909e-03
  -8.19059801108151103177e-03
  -8.32002753515051138300e-03
  -8.57765599326454006301e-03
  -8.98005947587035557866e-03
  -9.54419364999282114626e-03
  -1.02874509463476357385e-02
  -1.12277281531525108260e-02
  -1.23835000670254706534e-02
  -1.37738933574425778672e-02
  -1.54187531090489160501e-02
  -1.73386926002045763107e-02
  -1.95551147456507097566e-02
  -2.20901912587282596434e-02
  -2.49667829687813189188e-02
  -2.82082818534351922879e-02
  -3.18383522214822148322e-02
  -3.58805451262276947633e-02
  -4.03577565385064146453e-02
  -4.52914961238307656188e-02
  -5.07009297432720815180e-02
  -5.66016551707686499384e-02
  -6.30041671884340181986e-02
  -6.99119654646865179570e-02
  -7.73192568320947015703e-02
  -8.52082033221344126162e-02
  -9.35456693932492644450e-02
  -1.02279427396959138319e-01
  -1.11333791261932560368e-01
  -1.20604667405776133648e-01
  -1.29954043363746968298e-01
  -1.39203985531708013257e-01
  -1.48130299112512048287e-01
  -1.56456134549759040553e-01
  -1.63846036648752968468e-01
  -1.69901277834626551755e-01
  -1.74157885151502767052e-01
  -1.76089715710523037062e-01
  -1.75120524924532061650e-01
  -1.70651675315074857764e-01
  -1.62116780943094979106e-01
  -1.49082649953567847323e-01
  -1.31430002082042252098e-01
  -1.09672224908864107684e-01
  -8.55137848571711628454e-02
  -6.28242657411799687583e-02
  -4.93251026725978480858e-02
  -5.94591285745684483555e-02
  -1.19074971931994011420e-01
  -2.72403911783137220315e-01
  -5.90450773279421081696e-01
  -1.17593970156165705809e+00
  -2.15435334506402664800e+00
  -3.64420147974354291520e+00
  -5.72637168500833659834e+00
  -8.45836497105481655012e+00
  -1.19636109846188105621e+01
  -1.66466217684486501582e+01
  -2.40703909017763670875e+01
  -4.84413248479474987107e+01
  -2.51729116603783289463e+01
  -2.05052868695682448674e+01
  -1.81418830893933389348e+01
  -1.67413353004169564997e+01
  -1.58732970459645965633e+01
  -1.53467693561486413500e+01
  -1.50616596419018993203e+01
  -1.49596741493438045723e+01
  -1.50040462995029493243e+01
  -1.51698880743348354372e+01
  -1.54391423363194455476e+01
  -1.57977873405843816101e+01
  -1.62342533699682576298e+01
  -1.67385358148385670063e+01
  -1.73017201806447893375e+01
  -1.79157475047031802262e+01
  -1.85733115428214858866e+01
  -1.92678189985209478152e+01
  -1.99933715657228532336e+01
  -2.07447476903349183885e+01
  -2.15173746253758153557e+01
  -2.23072889730140566655e+01
  -2.31110878298113391338e+01
  -2.39258741284250220360e+01
  -2.47491998226308638209e+01
  -2.55790099291532122550e+01
  -2.64135895860355276454e+01
  -2.72515154688581802134e+01
  -2.80916122360099507205e+01
  -2.89329141808605569963e+01
</dep>
<dep S[1,1] frequency>
  +6.40837198327374513163e-01-j7.67675003796511767895e-01
  +6.28459418818732684642e-01-j7.77840243006772125156e-01
  +6.15658948473716161054e-01-j7.88010212863573200615e-01
  +6.02421805082350880767e-01-j7.98174936102988952236e-01
  +5.88733598166968019605e-01-j8.08323623172347960342e-01
  +5.74579523993383411984e-01-j8.18444613074460480817e-01
  +5.59944361567840664939e-01-j8.28525309560366962636e-01
  +5.44812469811637001271e-01-j8.38552112248483916268e-01
  +5.29167786135875783948e-01-j8.48510342202435818848e-01
  +5.12993826674505881691e-01-j8.58384161448376703518e-01
  +4.96273688475698970812e-01-j8.68156485854370996158e-01
  +4.78990054000972664827e-01-j8.77808890728393520497e-01
  +4.61125198339745301368e-01-j8.87321508416513027306e-01
  +4.42660999616117600830e-01-j8.96672917097492416794e-01
  +4.23578953146872494440e-01-j9.05840019872748203333e-01
  +4.03860190007903407938e-01-j9.14797913139530294302e-01
  +3.83485500783982802275e-01-j9.23519743108167867618e-01
  +3.62435365418504518153e-01-j9.31976549178819890784e-01
  +3.40689990251073993033e-01-j9.40137092726621492744e-01
  +3.18229353538635961751e-01-j9.47967669653251854278e-01
  +2.95033261008968039629e-01-j9.55431904844274426658e-01
  +2.71081413305024110372e-01-j9.62490526421320602424e-01
  +2.46353487558830408499e-01-j9.69101117392165090081e-01
  +2.20829235802319140403e-01-j9.75217841975911214902e-01
  +1.94488603502314977289e-01-j9.80791143510769125591e-01
  +1.67311872226787616835e-01-j9.85767410435077984232e-01
  +1.39279831346243027079e-01-j9.90088606366203771714e-01
  +1.10373984794618462679e-01-j9.93691859787515174851e-01
  +8.05768003181030756377e-02-j9.96509008295451081949e-01
  +4.98720104039766590209e-02-j9.98466091768834607123e-01
