<Qucs Dataset 0.0.19>
<indep frequency 201>
  +5.00000000000000000000e+06
  +5.09307772895175777376e+06
  +5.18788815062887873501e+06
  +5.28446352005213312805e+06
  +5.38283669268710538745e+06
  +5.48304113562180660665e+06
  +5.58511093895235564560e+06
  +5.68908082738061714917e+06
  +5.79498617202773224562e+06
  +5.90286300246756803244e+06
  +6.01274801898417435586e+06
  +6.12467860505742020905e+06
  +6.23869284008105285466e+06
  +6.35482951231752056628e+06
  +6.47312813209394365549e+06
  +6.59362894524375163019e+06
  +6.71637294679852481931e+06
  +6.84140189493472967297e+06
  +6.96875832518008537591e+06
  +7.09848556488436926156e+06
  +7.23062774795962404460e+06
  +7.36522982989475317299e+06
  +7.50233760304962098598e+06
  +7.64199771223386749625e+06
  +7.78425767057571932673e+06
  +7.92916587568621616811e+06
  +8.07677162612434569746e+06
  +8.22712513816867582500e+06
  +8.38027756290120724589e+06
  +8.53628100360924936831e+06
  +8.69518853351124748588e+06
  +8.85705421381256356835e+06
  +9.02193311209741793573e+06
  +9.18988132106315717101e+06
  +9.36095597760330326855e+06
  +9.53521528224584273994e+06
  +9.71271851895335130394e+06
  +9.89352607529172115028e+06
  +1.00776994629743527621e+07
  +1.02653013387887533754e+07
  +1.04563955259127318859e+07
  +1.06510470356273856014e+07
  +1.08493220894342958927e+07
  +1.10512881415844317526e+07
  +1.12570139020264670253e+07
  +1.14665693597822636366e+07
  +1.16800258067575320601e+07
  +1.18974558619957156479e+07
  +1.21189334963833838701e+07
  +1.23445340578155331314e+07
  +1.25743342968293521553e+07
  +1.28084123927151672542e+07
  +1.30468479801134634763e+07
  +1.32897221761070191860e+07
  +1.35371176078173909336e+07
  +1.37891184405150897801e+07
  +1.40458104062530789524e+07
  +1.43072808330332804471e+07
  +1.45736186745160296559e+07
  +1.48449145402826052159e+07
  +1.51212607266610898077e+07
  +1.54027512481260932982e+07
  +1.56894818692829795182e+07
  +1.59815501374475080520e+07
  +1.62790554158319626004e+07
  +1.65820989173490498215e+07
  +1.68907837390451021492e+07
  +1.72052148971742205322e+07
  +1.75254993629254065454e+07
  +1.78517460988147221506e+07
  +1.81840660957549363375e+07
  +1.85225724108152426779e+07
  +1.88673802056838758290e+07
  +1.92186067858467549086e+07
  +1.95763716404954455793e+07
  +1.99407964831780269742e+07
  +2.03120052932067103684e+07
  +2.06901243578362576663e+07
  +2.10752823152276314795e+07
  +2.14676101982113383710e+07
  +2.18672414788655564189e+07
  +2.22743121139240562916e+07
  +2.26889605910293869674e+07
  +2.31113279758471772075e+07
  +2.35415579600573927164e+07
  +2.39797969102390557528e+07
  +2.44261939176649414003e+07
  +2.48809008490232415497e+07
  +2.53440723980834297836e+07
  +2.58158661383239366114e+07
  +2.62964425765394903719e+07
  +2.67859652074464112520e+07
  +2.72846005693043917418e+07
  +2.77925183005737289786e+07
  +2.83098911976272426546e+07
  +2.88368952735365442932e+07
  +2.93737098179526329041e+07
  +2.99205174581012316048e+07
  +3.04775042209135256708e+07
  +3.10448595963135734200e+07
  +3.16227766016837880015e+07
  +3.22114518475304879248e+07
  +3.28110856043718978763e+07
  +3.34218818708712235093e+07
  +3.40440484432381466031e+07
  +3.46777969859221950173e+07
  +3.53233431036221459508e+07
  +3.59809064146359190345e+07
  +3.66507106255759298801e+07
  +3.73329836074752733111e+07
  +3.80279574733106642962e+07
  +3.87358686569686010480e+07
  +3.94569579936814531684e+07
  +4.01914708019608184695e+07
  +4.09396569670562893152e+07
  +4.17017710259677991271e+07
  +4.24780722540404722095e+07
  +4.32688247531714364886e+07
  +4.40742975416587814689e+07
  +4.48947646457230895758e+07
  +4.57305051927326172590e+07
  +4.65818035061638578773e+07
  +4.74489492023299932480e+07
  +4.83322372889100238681e+07
  +4.92319682653118744493e+07
  +5.01484482249039337039e+07
  +5.10819889591496959329e+07
  +5.20329080636809691787e+07
  +5.30015290463455840945e+07
  +5.39881814372664839029e+07
  +5.49932009009497165680e+07
  +5.60169293504793345928e+07
  +5.70597150638380870223e+07
  +5.81219128023933842778e+07
  +5.92038839315891414881e+07
  +6.03059965438842847943e+07
  +6.14286255839797556400e+07
  +6.25721529763767123222e+07
  +6.37369677553093135357e+07
  +6.49234661970964223146e+07
  +6.61320519549568220973e+07
  +6.73631361963342428207e+07
  +6.86171377427787780762e+07
  +6.98944832124323248863e+07
  +7.11956071651663184166e+07
  +7.25209522504213750362e+07
  +7.38709693577989786863e+07
  +7.52461177704567313194e+07
  +7.66468653213588595390e+07
  +7.80736885524355471134e+07
  +7.95270728767050355673e+07
  +8.10075127434139400721e+07
  +8.25155118062514811754e+07
  +8.40515830946950614452e+07
  +8.56162491885458678007e+07
  +8.72100423957133740187e+07
  +8.88335049333093017340e+07
  +9.04871891121127605438e+07
  +9.21716575244694650173e+07
  +9.38874832356888204813e+07
  +9.56352499790036529303e+07
  +9.74155523541595339775e+07
  +9.92289960297007709742e+07
  +1.01076197949022248387e+08
  +1.02957786540256932378e+08
  +1.04874401930070340633e+08
  +1.06826696161435276270e+08
  +1.08815333415460422635e+08
  +1.10840990237348333001e+08
  +1.12904355766559600830e+08
  +1.15006131971262112260e+08
  +1.17147033887144327164e+08
  +1.19327789860674366355e+08
  +1.21549141796887218952e+08
  +1.23811845411785081029e+08
  +1.26116670489436060190e+08
  +1.28464401143858864903e+08
  +1.30855836085782483220e+08
  +1.33291788894372075796e+08
  +1.35773088294013112783e+08
  +1.38300578436247766018e+08
  +1.40875119186959892511e+08
  +1.43497586418905943632e+08
  +1.46168872309691965580e+08
  +1.48889885645297110081e+08
  +1.51661552129247397184e+08
  +1.54484814697545140982e+08
  +1.57360633839461237192e+08
  +1.60289987924298495054e+08
  +1.63273873534238189459e+08
  +1.66313305803382873535e+08
  +1.69409318763110429049e+08
  +1.72562965693857401609e+08
  +1.75775319483450293541e+08
  +1.79047472992108106613e+08
  +1.82380539424239397049e+08
  +1.85775652707160353661e+08
  +1.89233967876863002777e+08
  +1.92756661470964610577e+08
  +1.96344931928972601891e+08
  +1.99999999999999880791e+08
</indep>
<dep dBS11 frequency>
  -1.18648247542478512664e-05
  -1.43893585369866571953e-05
  -1.74568249922713058294e-05
  -2.11854963564759484276e-05
  -2.57198060830981608984e-05
  -3.12362409171809094236e-05
  -3.79505884065088950111e-05
  -4.61268590997689767528e-05
  -5.60882804899231129448e-05
  -6.82308561081114471961e-05
  -8.30401046957946950815e-05
  -1.01111745760656734699e-04
  -1.23177288771483996058e-04
  -1.50135722554030738921e-04
  -1.83092803204362356397e-04
  -2.23409819450772064798e-04
  -2.72764194797792147197e-04
  -3.33224894415172696351e-04
  -4.07346375720934127627e-04
  -4.98285801053005073837e-04
  -6.09949477055047738390e-04
  -7.47176073884246705857e-04
  -9.15966206412451629942e-04
  -1.12377055560237493551e-03
  -1.37985203740127520752e-03
  -1.69574180254743861994e-03
  -2.08581435515556041366e-03
  -2.56801417563497311886e-03
  -3.16477540330093939924e-03
  -3.90418800117289495691e-03
  -4.82147920595625296275e-03
  -5.96089902966458282801e-03
  -7.37812451644029136666e-03
  -9.14333117968052153102e-03
  -1.13451238926958863223e-02
  -1.40955764860215253947e-02
  -1.75367032340256814860e-02
  -2.18487810551803371406e-02
  -2.72610643974801787615e-02
  -3.40655921949846313135e-02
  -4.26349853121605060213e-02
  -5.34453804682118796543e-02
  -6.71059470728407325701e-02
  -8.43967841283556063914e-02
  -1.06317378013794400227e-01
  -1.34148172748319638448e-01
  -1.69528065364407537485e-01
  -2.14550607488779160326e-01
  -2.71881052331359673868e-01
  -3.44894622944062034797e-01
  -4.37832743927062895128e-01
  -5.55967518604181365482e-01
  -7.05754516479810245499e-01
  -8.94939695134920998321e-01
  -1.13256966630856337197e+00
  -1.42884088348268001312e+00
  -1.79472311688503416427e+00
  -2.24131986295693419464e+00
  -2.77899334692712551842e+00
  -3.41637729940802836737e+00
  -4.15949103973877054585e+00
  -5.01119804351650177665e+00
  -5.97118176220478957816e+00
  -7.03645792711622419802e+00
  -8.20227991211196183485e+00
  -9.46320261954606323229e+00
  -1.08140813349794644438e+01
  -1.22508646888770300620e+01
  -1.37711392856475995927e+01
  -1.53744560228725806184e+01
  -1.70625015037911396121e+01
  -1.88391789476645357126e+01
  -2.07106432868707948103e+01
  -2.26853008698752809380e+01
  -2.47737302218804664733e+01
  -2.69883837479744812526e+01
  -2.93427356420212177568e+01
  -3.18491266235329888445e+01
  -3.45136687931670493867e+01
  -3.73247717460112511390e+01
  -4.02288196104361048810e+01
  -4.30846653755151720588e+01
  -4.56030382104463569704e+01
  -4.73440504379622382203e+01
  -4.79212810675975902086e+01
  -4.73313943163029122729e+01
  -4.59574145489639960260e+01
  -4.42403405114551162569e+01
  -4.24716243349628612691e+01
  -4.07937998368478034195e+01
  -3.92609814197716460171e+01
  -3.78846618662871819083e+01
  -3.66582300729908041603e+01
  -3.55685128245296624527e+01
  -3.46008551736017295752e+01
  -3.37412095465233292657e+01
  -3.29768860185006928987e+01
  -3.22967217095723668763e+01
  -3.16910123204857399060e+01
  -3.11513593761064022658e+01
  -3.06705003726363010230e+01
  -3.02421496622567467227e+01
  -2.98608601162322102596e+01
  -2.95219077776964837767e+01
  -2.92211984952501104829e+01
  -2.89551944246325909660e+01
  -2.87208581308041033253e+01
  -2.85156122735959414172e+01
  -2.83373132714394273535e+01
  -2.81842378092625693853e+01
  -2.80550815611339672273e+01
  -2.79489700487735426293e+01
  -2.78654821946366695329e+01
  -2.78046879209952670919e+01
  -2.77672021979485563747e+01
  -2.77542594121730985535e+01
  -2.77678140641881121553e+01
  -2.78106770120458151041e+01
  -2.78867014512714703756e+01
  -2.80010407586167850980e+01
  -2.81605134205528386815e+01
  -2.83741326661448667323e+01
  -2.86538983641155766691e+01
  -2.90160234647364525529e+01
  -2.94829151787776737592e+01
  -3.00865444163610895600e+01
  -3.08745584583153203084e+01
  -3.19223382058046531995e+01
  -3.33596353215561407524e+01
  -3.54398859367485385974e+01
  -3.87749314059357459428e+01
  -4.56973128545624689423e+01
  -5.31289691060222253327e+01
  -3.93132985780643622320e+01
  -3.36261126599626720690e+01
  -2.97848568267288626998e+01
  -2.67853864224947031403e+01
  -2.42699340241209853275e+01
  -2.20699598068724434086e+01
  -2.00931588771071218957e+01
  -1.82841102919126221593e+01
  -1.66076019917052484232e+01
  -1.50405928011528864374e+01
  -1.35679669277989773946e+01
  -1.21801262758592230284e+01
  -1.08715289983626774983e+01
  -9.63972046797529635853e+00
  -8.48460025187069888375e+00
  -7.40776859569102441583e+00
  -6.41185929439285207110e+00
  -5.49982100075739666067e+00
  -4.67416607542680218046e+00
  -3.93626003014078129638e+00
  -3.28575890237722134657e+00
  -2.72029830297914898551e+00
  -2.23549103843193419650e+00
  -1.82521654343883477090e+00
  -1.48211664246810936874e+00
  -1.19817668334520899265e+00
  -9.65277532970582052840e-01
  -7.75640244109896515035e-01
  -6.22130353802411106834e-01
  -4.98425741197310201436e-01
  -3.99073553974573780323e-01
  -3.19468978530630498547e-01
  -2.55786466844641013907e-01
  -2.04887491010110889267e-01
  -1.64221508599047161248e-01
  -1.31730428705071095363e-01
  -1.05762089561804314974e-01
  -8.49950449175333883067e-02
  -6.83749901893238865025e-02
  -5.50620789296610430030e-02
  -4.43878768464999046151e-02
  -3.58205456999752813729e-02
  -2.89368875368291172956e-02
  -2.34000124406159928925e-02
  -1.89415616221950688924e-02
  -1.53475896700690141866e-02
  -1.24473687133390686910e-02
  -1.01045162271228162326e-02
  -8.20996563229394078764e-03
  -6.67639581942753267130e-03
  -5.43381458370802324087e-03
  -4.42605438547465351168e-03
  -3.60798948206204114081e-03
  -2.94332367798151584015e-03
  -2.40282974482647826084e-03
  -1.96294666295692386837e-03
  -1.60466061875180602582e-03
  -1.31261126857002666420e-03
  -1.07437704494928350230e-03
  -8.79902938261236831560e-04
  -7.21041795659232574896e-04
  -5.91186178321685272714e-04
  -4.84972552014043380500e-04
  -3.98043325882862521724e-04
  -3.26855212121299502567e-04
  -2.68524721363080779487e-04
  -2.20703465334400506133e-04
  -1.81477412543500484041e-04
</dep>
<dep dBS21 frequency>
  -5.56352357658373435356e+01
  -5.47974359681243470277e+01
  -5.39581992616736343393e+01
  -5.31174672699402350418e+01
  -5.22751790745616915501e+01
  -5.14312710930547538624e+01
  -5.05856769501904679487e+01
  -4.97383273428027763430e+01
  -4.88891498978124801056e+01
  -4.80380690232903475589e+01
  -4.71850057524424570943e+01
  -4.63298775804855438309e+01
  -4.54725982944947872966e+01
  -4.46130777964632585508e+01
  -4.37512219200210523695e+01
  -4.28869322415392417724e+01
  -4.20201058867100698535e+01
  -4.11506353341740478413e+01
  -4.02784082183929470489e+01
  -3.94033071347862886569e+01
  -3.85252094512146712191e+01
  -3.76439871312798359781e+01
  -3.67595065767126953915e+01
  -3.58716284984594295793e+01
  -3.49802078291162175105e+01
  -3.40850936933100641113e+01
  -3.31861294577575023368e+01
  -3.22831528894082495640e+01
  -3.13759964587709738737e+01
  -3.04644878368388525303e+01
  -2.95484506487879912129e+01
  -2.86277055668704925040e+01
  -2.77020718500401130768e+01
  -2.67713694706273308555e+01
  -2.58354220111404160320e+01
  -2.48940605699940888940e+01
  -2.39471289874411255028e+01
  -2.29944907969357927868e+01
  -2.20360384283382195747e+01
  -2.10717053444892314928e+01
  -2.01014819890291605020e+01
  -1.91254366677571709943e+01
  -1.81437427825557122674e+01
  -1.71567141832452776384e+01
  -1.61648507812054447186e+01
  -1.51688969332129062195e+01
  -1.41699153576282093070e+01
  -1.31693793047394347440e+01
  -1.21692850506207239647e+01
  -1.11722850078197328827e+01
  -1.01818380971483417596e+01
  -9.20236754607344487056e+00
  -8.23940603933174209317e+00
  -7.29969387905844957487e+00
  -6.39117916338764580075e+00
  -5.52285531834604359602e+00
  -4.70437105502461605511e+00
  -3.94537504154402896006e+00
  -3.25462251212276498791e+00
  -2.63896646007566193504e+00
  -2.10244629213002776069e+00
  -1.64571631608893920173e+00
  -1.26598583952586274393e+00
  -9.57488896334617756168e-01
  -7.12338690368417015719e-01
  -5.21530423389920838595e-01
  -3.75866816447280704949e-01
  -2.66663006970060123546e-01
  -1.86185738656216542841e-01
  -1.27854420135042778917e-01
  -8.62661324369297655146e-02
  -5.71108772438815581740e-02
  -3.70314090565738024408e-02
  -2.34653460546149703059e-02
  -1.44922460840406115701e-02
  -8.69722539339388804602e-03
  -5.05549281178425437278e-03
  -2.83800751805819446300e-03
  -1.53636444465865204534e-03
  -8.04169031682323192170e-04
  -4.12024414886173902771e-04
  -2.13465869644419875030e-04
  -1.19532627727268839788e-04
  -8.00540430063727986333e-05
  -7.00905889253191575605e-05
  -8.02876772942584234025e-05
  -1.10166198802628549679e-04
  -1.63590635558073668960e-04
  -2.45829597026123939773e-04
  -3.61761558151507700044e-04
  -5.14886984150675765075e-04
  -7.06892654510460132986e-04
  -9.37579670833509635011e-04
  -1.20501728988051939537e-03
  -1.50582354316659903885e-03
  -1.83550312640213880364e-03
  -2.18879528557320212831e-03
  -2.56000099497485445257e-03
  -2.94327088565273214255e-03
  -3.33284414634774745975e-03
  -3.72323477676156410279e-03
  -4.10936575218779839846e-03
  -4.48665435131776618727e-03
  -4.85105349268490602943e-03
  -5.19905472209880245571e-03
  -5.52765873007258785182e-03
  -5.83431913962522211148e-03
  -6.11686493833779165036e-03
  -6.37340644952275221791e-03
  -6.60222924545930071188e-03
  -6.80167998533043847986e-03
  -6.97004789220348214968e-03
  -7.10544554898200585169e-03
  -7.20569298438425345082e-03
  -7.26820973968433925450e-03
  -7.28992088577924517157e-03
  -7.26718495541951985811e-03
  -7.19575466896927879584e-03
  -7.07078541584514781715e-03
  -6.88691202964268091302e-03
  -6.63842186704229411665e-03
  -6.31956207991541361879e-03
  -5.92503189863051969721e-03
  -5.45072752452556950897e-03
  -4.89482885885046854757e-03
  -4.25934500849135116995e-03
  -3.55227080813608122462e-03
  -2.79055130031923394676e-03
  -2.00410734935411831426e-03
  -1.24124576127466676456e-03
  -5.75864045123468479975e-04
  -1.16965794220846156025e-04
  -2.11294628760668083494e-05
  -5.08721261963534046070e-04
  -1.88480871987636812090e-03
  -4.56590534426872841911e-03
  -9.11383750848162102476e-03
  -1.62781318271126469732e-02
  -2.70483043131116013269e-02
  -4.27171757635996032776e-02
  -6.49556625973320006517e-02
  -9.58981427089902749294e-02
  -1.38235139453035699164e-01
  -1.95306339233624615126e-01
  -2.71181595291162313988e-01
  -3.70710686332794747688e-01
  -4.99515145199227517114e-01
  -6.63889803947934065143e-01
  -8.70581915388818461388e-01
  -1.12642707566450694934e+00
  -1.43784780544888590725e+00
  -1.81026134729297938364e+00
  -2.24748745830226193121e+00
  -2.75127528785603470141e+00
  -3.32106105490323599838e+00
  -3.95401894876132065093e+00
  -4.64539238530354303691e+00
  -5.38902293229719475676e+00
  -6.17795798244820559830e+00
  -7.00502416685380779882e+00
  -7.86328944087764547533e+00
  -8.74638165190894056877e+00
  -9.64866816516115122226e+00
  -1.05653225565417514531e+01
  -1.14923115365486712136e+01
  -1.24263330229163919682e+01
  -1.33647296737532332855e+01
  -1.43053947558172787069e+01
  -1.52466807910465647069e+01
  -1.61873166156594905374e+01
  -1.71263352489481128771e+01
  -1.80630129841430075999e+01
  -1.89968190184391616526e+01
  -1.99273744241270875932e+01
  -2.08544190983146862095e+01
  -2.17777853591433299130e+01
  -2.26973769828442257790e+01
  -2.36131526395044986089e+01
  -2.45251128532081210665e+01
  -2.54332897676919422736e+01
  -2.63377391347783138542e+01
  -2.72385340578985903903e+01
  -2.81357601180285783471e+01
  -2.90295115865680486422e+01
  -2.99198884917453291621e+01
  -3.08069943546006044244e+01
  -3.16909344498269263113e+01
  -3.25718144777264555501e+01
  -3.34497395579409158017e+01
  -3.43248134748023829843e+01
  -3.51971381192211225652e+01
  -3.60668130838583635978e+01
  -3.69339353776188659140e+01
  -3.77985992327878008723e+01
  -3.86608959838615291460e+01
  -3.95209140016188911204e+01
  -4.03787386695144476789e+01
  -4.12344523922558110485e+01
  -4.20881346286134885304e+01
  -4.29398619422357796793e+01
  -4.37897080655957822160e+01
</dep>
<dep S[1,1] frequency>
  +6.40837225025732482031e-01-j7.67675008742755404789e-01
  +6.27393311801621278434e-01-j7.78700403903732407684e-01
  +6.13450800769429149817e-01-j7.89730394160516602220e-01
  +5.98991787628874616800e-01-j8.00752121585858511743e-01
  +5.83997801981065545185e-01-j8.11751590755824925516e-01
  +5.68449800149209316658e-01-j8.22713578547187629475e-01
  +5.52328159680951724653e-01-j8.33621536199563140102e-01
  +5.35612675886204869791e-01-j8.44457482875608178574e-01
  +5.18282560825705562735e-01-j8.55201889861972763818e-01
  +5.00316445238424889475e-01-j8.65833554450382569811e-01
  +4.81692383982629812600e-01-j8.76329462419934035466e-01
  +4.62387865669032116500e-01-j8.86664637906128261235e-01
  +4.42379827288724769563e-01-j8.96811979286250005039e-01
  +4.21644674788328233106e-01-j9.06742079531171585316e-01
  +4.00158310725900967508e-01-j9.16423029266358213363e-01
  +3.77896170361271321880e-01-j9.25820200545123594971e-01
  +3.54833267803222274228e-01-j9.34896009059550503473e-01
  +3.30944254165578766180e-01-j9.43609652192497927459e-01
  +3.06203490090572572058e-01-j9.51916819940545666512e-01
  +2.80585135501023152926e-01-j9.59769375304230676349e-01
  +2.54063260068946028536e-01-j9.67115000239315070196e-01
  +2.26611978670960723115e-01-j9.73896802681133766377e-01
  +1.98205617083928364863e-01-j9.80052879482971706082e-01
  +1.68818914414458232098e-01-j9.85515829339078219817e-01
  +1.38427270327227569524e-01-j9.90212208885080547027e-01
  +1.07007047135906488422e-01-j9.94061924179187927919e-01
  +7.45359393727760138892e-02-j9.96977548669990332186e-01
  +4.09934267233081003901e-02-j9.98863557567868820541e-01
  +6.36133041454767234057e-03-j9.99615467296343318537e-01
  -2.93755014392838159631e-02-j9.99118867483116290806e-01
