<Qucs Dataset 0.0.19>
<indep frequency 201>
  +1.00000000000000000000e+05
  +1.04350575848920707358e+05
  +1.08890426800013534375e+05
  +1.13627787410161588923e+05
  +1.18571250486891061882e+05
  +1.23729782674337009666e+05
  +1.29112740717288805172e+05
  +1.34729888432814768748e+05
  +1.40591414420250628609e+05
  +1.46707950541674072156e+05
  +1.53090591206386656268e+05
  +1.59750913494381675264e+05
  +1.66700998155298409984e+05
  +1.73953451520952570718e+05
  +1.81521428371187153971e+05
  +1.89418655794519901974e+05
  +1.97659458086866536178e+05
  +2.06258782733501313487e+05
  +2.15232227521382854320e+05
  +2.24596068831022188533e+05
  +2.34367291159209969919e+05
  +2.44563617926152190194e+05
  +2.55203543622894096188e+05
  +2.66306367357341572642e+05
  +2.77892227859728096519e+05
  +2.89982140011021110695e+05
  +3.02598032960524025839e+05
  +3.15762789901813725010e+05
  +3.29500289579160220455e+05
  +3.43835449599715007935e+05
  +3.58794271630028088111e+05
  +3.74403888558875070885e+05
  +3.90692613711937505286e+05
  +4.07689992207606090233e+05
  +4.25426854547056893352e+05
  +4.43935372535804170184e+05
  +4.63249117638163093943e+05
  +4.83403121870467148256e+05
  +5.04433941343492537271e+05
  +5.26379722569341305643e+05
  +5.49280271653058938682e+05
  +5.73177126494482858106e+05
  +5.98113632131289690733e+05
  +6.24135019359895843081e+05
  +6.51288486776824225672e+05
  +6.79623286389337736182e+05
  +7.09190812950633582659e+05
  +7.40044697181628318503e+05
  +7.72240903048430336639e+05
  +8.05837829271942726336e+05
  +8.40896415253714658320e+05
  +8.77480251610182574950e+05
  +9.15655695515783969313e+05
  +9.55491991064160596579e+05
  +9.97061394865769660100e+05
  +1.04043930710971145891e+06
  +1.08570440832750452682e+06
  +1.13293880210686870851e+06
  +1.18222816401438158937e+06
  +1.23366189699712954462e+06
  +1.28733329354522400536e+06
  +1.34333970490931812674e+06
  +1.40178271768006565981e+06
  +1.46276833804979850538e+06
  +1.52640718409065180458e+06
  +1.59281468639789056033e+06
  +1.66211129746237886138e+06
  +1.73442271015195990913e+06
  +1.80988008569802716374e+06
  +1.88862029160083108582e+06
  +1.97078614988503209315e+06
  +2.05652669615580490790e+06
  +2.14599744992536632344e+06
  +2.23936069670027401298e+06
  +2.33678578234113752842e+06
  +2.43844942022868432105e+06
  +2.54453601179330050945e+06
  +2.65523798098947014660e+06
  +2.77075612332176696509e+06
  +2.89129997005549585447e+06
  +3.01708816827258234844e+06
  +3.14834887746209232137e+06
  +3.28532018336472474039e+06
  +3.42825052982190763578e+06
  +3.57739916941283643246e+06
  +3.73303663369679963216e+06
  +3.89544522391377575696e+06
  +4.06491952303330413997e+06
  +4.24176693008045479655e+06
  +4.42630821770803816617e+06
  +4.61887811402643751353e+06
  +4.81982590974635630846e+06
  +5.02951609173580445349e+06
  +5.24832900414044130594e+06
  +5.47666153826647996902e+06
  +5.71492785247742570937e+06
  +5.96356012341055180877e+06
  +6.22300932987551763654e+06
  +6.49374607085716444999e+06
  +6.77626141910611465573e+06
  +7.07106781186547875404e+06
  +7.37869998034930415452e+06
  +7.69971591965869162232e+06
  +8.03469790089486632496e+06
  +8.38425352730493899435e+06
  +8.74901683637615107000e+06
  +9.12964944987753964961e+06
  +9.52684177393503487110e+06
  +9.94131425131674110889e+06
  +1.03738186681998409331e+07
  +1.08251395177893619984e+07
  +1.12960954232622794807e+07
  +1.17875406226177681237e+07
  +1.23003665181270949543e+07
  +1.28355032931934632361e+07
  +1.33939215995545592159e+07
  +1.39766343178881555796e+07
  +1.45846983950141500682e+07
  +1.52192167610255628824e+07
  +1.58813403298256359994e+07
  +1.65722700866999365389e+07
  +1.72932592667098157108e+07
  +1.80456156278585381806e+07
  +1.88307038231532163918e+07
  +1.96499478758651055396e+07
  +2.05048337624779865146e+07
  +2.13969121080096960068e+07
  +2.23278009985955581069e+07
  +2.32991889164355359972e+07
  +2.43128378024283908308e+07
  +2.53705862520481087267e+07
  +2.64743528502593114972e+07
  +2.76261396515207253397e+07
  +2.88280358111888915300e+07
  +3.00822213749086931348e+07
  +3.13909712328643351793e+07
  +3.27566592460629791021e+07
  +3.41817625521354526281e+07
  +3.56688660584640875459e+07
  +3.72206671307874992490e+07
  +3.88399804857866764069e+07
  +4.05297432965268418193e+07
  +4.22930205200150981545e+07
  +4.41330104565379619598e+07
  +4.60530505508617535233e+07
  +4.80566234458187893033e+07
  +5.01473632992593571544e+07
  +5.23290623758274242282e+07
  +5.46056779255168288946e+07
  +5.69813393614837899804e+07
  +5.94603557501360550523e+07
  +6.20472236270838230848e+07
  +6.47466351531295552850e+07
  +6.75634866250904202461e+07
  +7.05028873568903952837e+07
  +7.35701689470309764147e+07
  +7.67708949492506831884e+07
  +8.01108709639130681753e+07
  +8.35961551684291213751e+07
  +8.72330693058130741119e+07
  +9.10282101513040512800e+07
  +9.49884614778514951468e+07
  +9.91210065421681702137e+07
  +1.03433341113998860121e+08
  +1.07933287072236269712e+08
  +1.12629006592547267675e+08
  +1.17529016952241927385e+08
  +1.22642205979240104556e+08
  +1.27977848173156529665e+08
  +1.33545621527746304870e+08
  +1.39355625085223376751e+08
  +1.45418397254293620586e+08
  +1.51744934925126492977e+08
  +1.58346713415939509869e+08
  +1.65235707287373065948e+08
  +1.72424412062410861254e+08
  +1.79925866891241639853e+08
  +1.87753678202173054218e+08
  +1.95922044381497144699e+08
  +2.04445781527070283890e+08
  +2.13340350322324216366e+08
  +2.22621884079450100660e+08
  +2.32307218002622961998e+08
  +2.42413919724344670773e+08
  +2.52960321170294046402e+08
  +2.63965551810480922461e+08
  +2.75449573357017993927e+08
  +2.87433215971443593502e+08
  +2.99938216047273576260e+08
  +3.12987255636309623718e+08
  +3.26604003590222358704e+08
  +3.40813158492027044296e+08
  +3.55640493455324769020e+08
  +3.71112902872574925423e+08
  +3.87258451197177410126e+08
  +4.04106423847866594791e+08
  +4.21687380327728688717e+08
  +4.40033209654212892056e+08
  +4.59177188200660228729e+08
  +4.79154040054270923138e+08
  +5.00000000000000357628e+08
</indep>
<dep dBS11 frequency>
  -1.60725698139502490847e+01
  -1.64337286575332122140e+01
  -1.67955905095982842568e+01
  -1.71581008331157676139e+01
  -1.75212092201584894724e+01
  -1.78848691131639547791e+01
  -1.82490375412309795422e+01
  -1.86136748713995778814e+01
  -1.89787445747136693797e+01
  -1.93442130067498787582e+01
  -1.97100492022051838603e+01
  -2.00762246830693591448e+01
  -2.04427132798612021247e+01
  -2.08094909653751578560e+01
  -2.11765357003684648873e+01
  -2.15438272906114214322e+01
  -2.19113472547261132206e+01
  -2.22790787022488245839e+01
  -2.26470062213664888873e+01
  -2.30151157757977316010e+01
  -2.33833946103128980099e+01
  -2.37518311644132786853e+01
  -2.41204149937178904395e+01
  -2.44891366986360949909e+01
  -2.48579878599341661527e+01
  -2.52269609808352868185e+01
  -2.55960494353234366827e+01
  -2.59652474223530695951e+01
  -2.63345499256977149116e+01
  -2.67039526792016168599e+01
  -2.70734521372298573283e+01
  -2.74430454501426090985e+01
  -2.78127304446504730606e+01
  -2.81825056089378094271e+01
  -2.85523700824721231584e+01
  -2.89223236504479430664e+01
  -2.92923667428446954375e+01
  -2.96625004381095891404e+01
  -3.00327264715085036073e+01
  -3.04030472482205347262e+01
  -3.07734658612857536752e+01
  -3.11439861145506533546e+01
  -3.15146125507921404107e+01
  -3.18853504852392113378e+01
  -3.22562060447515790429e+01
  -3.26271862129568575028e+01
  -3.29982988816936426701e+01
  -3.33695529091554945467e+01
  -3.37409581851833095811e+01
  -3.41125257042087213222e+01
  -3.44842676464122348534e+01
  -3.48561974677243995302e+01
  -3.52283299993702954112e+01
  -3.56006815577343260770e+01
  -3.59732700654080304048e+01
  -3.63461151843760674751e+01
  -3.67192384623979890534e+01
  -3.70926634937560635308e+01
  -3.74664160956637743993e+01
  -3.78405245017670708307e+01
  -3.82150195743230227663e+01
  -3.85899350368097984187e+01
  -3.89653077289107017123e+01
  -3.93411778860248446676e+01
  -3.97175894456928517684e+01
  -4.00945903835881551913e+01
  -4.04722330820215177027e+01
  -4.08505747342372558251e+01
  -4.12296777881556550938e+01
  -4.16096104336388350475e+01
  -4.19904471378371937362e+01
  -4.23722692337175104171e+01
  -4.27551655674934636409e+01
  -4.31392332113847842834e+01
  -4.35245782489390435899e+01
  -4.39113166410747908230e+01
  -4.42995751820665617515e+01
  -4.46894925559162885520e+01
  -4.50812205049660903455e+01
  -4.54749251242407765972e+01
  -4.58707882969012388230e+01
  -4.62690092883887302833e+01
  -4.66698065194010212053e+01
  -4.70734195408270394978e+01
  -4.74801112372561249231e+01
  -4.78901702897596948105e+01
  -4.83039139334204605802e+01
  -4.87216910506829918859e+01
  -4.91438856481536774368e+01
  -4.95709207721392886015e+01
  -5.00032629271526545267e+01
  -5.04414270719856290270e+01
  -5.08859822798991530135e+01
  -5.13375581630951600687e+01
  -5.17968521768485885559e+01
  -5.22646379352126828621e+01
  -5.27417746872689292559e+01
  -5.32292181189126978325e+01
  -5.37280326570616182380e+01
  -5.42394054553937436935e+01
  -5.47646622232770070582e+01
  -5.53052850048465529653e+01
  -5.58629318923128153074e+01
  -5.64394584123512004226e+01
  -5.70369398614095928224e+01
  -5.76576930163606888868e+01
  -5.83042941110262162852e+01
  -5.89795872091591277808e+01
  -5.96866721523027337071e+01
  -6.04288523677374129761e+01
  -6.12095068408358713441e+01
  -6.20318219195720104153e+01
  -6.28982678973041160475e+01
  -6.38096182041048436417e+01
  -6.47631700856720442516e+01
  -6.57496429367032249047e+01
  -6.67481287059833050535e+01
  -6.77189445786672763461e+01
  -6.85965442927688542341e+01
  -6.92901533802988183197e+01
  -6.97048099775482370433e+01
  -6.97844625390585520108e+01
  -6.95465553737932253853e+01
  -6.90714975439637868249e+01
  -6.84589489770250878564e+01
  -6.77923388145764533874e+01
  -6.71278556625050413231e+01
  -6.64984366419731145470e+01
  -6.59213835199199706949e+01
  -6.54046333358197529151e+01
  -6.49508251091486954465e+01
  -6.45596285089252148737e+01
  -6.42289255449763913930e+01
  -6.39552622076060970358e+01
  -6.37338082497791873493e+01
  -6.35579373147033166447e+01
  -6.34184620322001251225e+01
  -6.33025213038228784512e+01
  -6.31921242577621526948e+01
  -6.30624311967712571914e+01
  -6.28800430753907022563e+01
  -6.26019362909756083013e+01
  -6.21762227714224806618e+01
  -6.15463882284438312809e+01
  -6.06602701843198133247e+01
  -5.94826672634749442636e+01
  -5.80065146538255049791e+01
  -5.62558623465934104502e+01
  -5.42782467017949841193e+01
  -5.21311737361248361822e+01
  -4.98699279913348831883e+01
  -4.75406150064297747804e+01
  -4.51781714633098943068e+01
  -4.28073080266714072195e+01
  -4.04445636247898079318e+01
  -3.81004367890051867107e+01
  -3.57811796951745151318e+01
  -3.34901724402482088294e+01
  -3.12289305767308711381e+01
  -2.89978364810718858280e+01
  -2.67966842448139459520e+01
  -2.46251170563962489268e+01
  -2.24830272911729345253e+01
  -2.03709867250667997496e+01
  -1.82907774982442141720e+01
  -1.62460999839154212054e+01
  -1.42435306905556018364e+01
  -1.22937660915504149983e+01
  -1.04130662860589815466e+01
  -8.62453145221221006977e+00
  -6.95836399447381293015e+00
  -5.44977006431069366243e+00
  -4.13329435567808101126e+00
  -3.03408058677107472789e+00
  -2.15952971064973553439e+00
  -1.49626665872080533148e+00
  -1.01448110274134717379e+00
  -6.76732205895014704566e-01
  -4.46286125626964680357e-01
  -2.92072129582862605179e-01
  -1.90223702293205981784e-01
  -1.23533334710592357375e-01
  -8.00968179696645715682e-02
  -5.18949553179953657067e-02
  -3.36159369454463799465e-02
  -2.17779443877067699353e-02
  -1.41131180341385557148e-02
  -9.14974164094790182178e-03
  -5.93466393061617154131e-03
  -3.85116257976709846708e-03
  -2.50031118006580586888e-03
  -1.62403580007665468594e-03
  -1.05532545451608771384e-03
  -6.86048857690127336997e-04
  -4.46158867576091472916e-04
  -2.90253823672461752723e-04
  -1.88889914425291536703e-04
  -1.22962026709478032841e-04
  -8.00671468844238042213e-05
  -5.21493803842010847458e-05
  -3.39739826933379120491e-05
</dep>
<dep dBS21 frequency>
  -1.08629424774368946172e-01
  -9.98607714467870805075e-02
  -9.17924152682524086000e-02
  -8.43695781477219602928e-02
  -7.75415896630001905132e-02
  -7.12616064169269702866e-02
  -6.54863462585476285849e-02
  -6.01758373028718901443e-02
  -5.52931815324275779955e-02
  -5.08043326459663088790e-02
  -4.66778877275695822102e-02
  -4.28848922410188376775e-02
  -3.93986578049538085922e-02
  -3.61945921706925341499e-02
  -3.32500408050607418331e-02
  -3.05441394711473759860e-02
  -2.80576771997460457098e-02
  -2.57729690511747065729e-02
  -2.36737380793234850063e-02
  -2.17450059264081389798e-02
  -1.99729914969890044729e-02
  -1.83450171813629436812e-02
  -1.68494221227636145621e-02
  -1.54754820467870590761e-02
  -1.42133351971307497763e-02
  -1.30539139463773275207e-02
  -1.19888816758448209232e-02
  -1.10105745427120683966e-02
  -1.01119477765728230101e-02
  -9.28652617023680015951e-03
  -8.52835845193885243309e-03
  -7.83197524684130404193e-03
  -7.19235035591981805569e-03
  -6.60486509915775028140e-03
  -6.06527548799021005294e-03
  -5.56968200870231085198e-03
  -5.11450181437154548919e-03
  -4.69644313783027823883e-03
  -4.31248175199855192374e-03
  -3.95983931690144490972e-03
  -3.63596346484140828942e-03
  -3.33850948643409257965e-03
  -3.06532349072831476061e-03
  -2.81442692234883410848e-03
  -2.58400232767250562227e-03
  -2.37238027038677622496e-03
  -2.17802730463159633853e-03
  -1.99953492098299068572e-03
  -1.83560938734769535027e-03
  -1.68506241278530179140e-03
  -1.54680256827190165669e-03
  -1.41982740319660633542e-03
  -1.30321620176692548609e-03
  -1.19612332747562441666e-03
  -1.09777210825755472748e-03
  -1.00744921859215923535e-03
  -9.24499518316156229832e-04
  -8.48321311169278466022e-04
  -7.78361989135240820055e-04
  -7.14114031178704434730e-04
  -6.55111327742703523913e-04
  -6.00925804503415041460e-04
  -5.51164321113149779929e-04
  -5.05465822515752528747e-04
  -4.63498722487558562685e-04
  -4.24958500285650166151e-04
  -3.89565493293585966405e-04
  -3.57062869557621170771e-04
  -3.27214765669625834259e-04
  -2.99804576523304117629e-04
  -2.74633384545549467503e-04
  -2.51518517063986841477e-04
  -2.30292221454995451550e-04
  -2.10800448303866415399e-04
  -1.92901733959544523624e-04
  -1.76466174291429854374e-04
  -1.61374482209212871068e-04
  -1.47517122224282971844e-04
  -1.34793515603623187057e-04
  -1.23111310523845888599e-04
  -1.12385711888526008636e-04
  -1.02538865820666870920e-04
  -9.34992945916674329755e-05
  -8.52013776902683288381e-05
  -7.75848753692440722520e-05
  -7.05944911363919134877e-05
  -6.41794700877978675736e-05
  -5.82932301151561501023e-05
  -5.28930232601263248344e-05
  -4.79396248387962259623e-05
  -4.33970479997681122196e-05
  -3.92322815991355230199e-05
  -3.54150495743869392568e-05
  -3.19175899455266811017e-05
  -2.87144517980586747757e-05
  -2.57823088717112596370e-05
  -2.30997881841402625321e-05
  -2.06473125379815084575e-05
  -1.84069556526927693703e-05
  -1.63623087663838565455e-05
  -1.44983578185853684273e-05
  -1.28013700216901797483e-05
  -1.12587891264527317395e-05
  -9.85913840008920499517e-06
  -8.59193048985459506171e-06
  -7.44758351858518985640e-06
  -6.41734253982029444186e-06
  -5.49320573665240831753e-06
  -4.66785470941950805031e-06
  -3.93458807634664816587e-06
  -3.28725800277554862835e-06
  -2.72020888793679214504e-06
  -2.22821776610082738696e-06
  -1.80643600595328881838e-06
  -1.45033182261533548471e-06
  -1.15563337613969833476e-06
  -9.18272308428382874099e-07
  -7.34327667919169442028e-07
  -5.99970519996027811237e-07
  -5.11409745519193582691e-07
  -4.64839832190369647131e-07
  -4.56392059908151274976e-07
  -4.82090751765839249653e-07
  -5.37817076239753167426e-07
  -6.19283407339025778916e-07
  -7.22022062420129842272e-07
  -8.41392791861987213240e-07
  -9.72614401559511268129e-07
  -1.11082594657408771019e-06
  -1.25118359291681508614e-06
  -1.38899879506272843439e-06
  -1.51992282395980515748e-06
  -1.64018123620799370190e-06
  -1.74686031382597071573e-06
  -1.83824578075742456855e-06
  -1.91421482454044621094e-06
  -1.97668836915970945196e-06
  -2.03016942906568954278e-06
  -2.08243756471135611855e-06
  -2.14556313774962484722e-06
  -2.23758795720657800967e-06
  -2.38556251337414286227e-06
  -2.63125031672616715731e-06
  -3.04190495920286347478e-06
  -3.73041784703691024847e-06
  -4.89235350116798160732e-06
  -6.87279183200676153676e-06
  -1.02848648981371032160e-05
  -1.62166241827684313971e-05
  -2.65869345874766285429e-05
  -4.47500731594171604288e-05
  -7.65114858840237026119e-05
  -1.31817707943184111649e-04
  -2.27543736712057650604e-04
  -3.92055500597313208357e-04
  -6.72626948763703296462e-04
  -1.14742342447103976011e-03
  -1.94475233348083832545e-03
  -3.27382103189411419533e-03
  -5.47361586018970790873e-03
  -9.09013460610200163536e-03
  -1.49976174169906290717e-02
  -2.45872731407873398868e-02
  -4.00577903090013759391e-02
  -6.48552726802740925338e-02
  -1.04322988795405038887e-01
  -1.66623315511964825708e-01
  -2.63960462275335761007e-01
  -4.14012917514107625649e-01
  -6.41205209618899263369e-01
  -9.76969598616318268824e-01
  -1.45764982856445524106e+00
  -2.11883979486860063446e+00
  -2.98664883310879769596e+00
  -4.06936520113770772156e+00
  -5.35442824761620617124e+00
  -6.81277455124743891446e+00
  -8.40764787453456108324e+00
  -1.01029416188142420197e+01
  -1.18681596003112854731e+01
  -1.36799615062413444377e+01
  -1.55216217196101862186e+01
  -1.73816773403878919169e+01
  -1.92525133293793047073e+01
  -2.11291880354283918564e+01
  -2.30085586903666623471e+01
  -2.48886680236494761687e+01
  -2.67683288689211060785e+01
  -2.86468488003779278017e+01
  -3.05238500211747556534e+01
  -3.23991525803959845575e+01
  -3.42726991200707331586e+01
  -3.61445066302892641374e+01
  -3.80146356774657263600e+01
  -3.98831708987794542054e+01
  -4.17502087426448014185e+01
  -4.36158498590685610452e+01
  -4.54801944662234731709e+01
  -4.73433396153935746042e+01
  -4.92053776607273221089e+01
  -5.10663954879010688614e+01
</dep>
<dep S[1,1] frequency>
  +2.40587258796487041268e-02-j1.55318375479597536870e-01
  +2.20862554727447729652e-02-j1.49143042224506500171e-01
  +2.02677925767465842710e-02-j1.43190089611431842220e-01
  +1.85918319918721951234e-02-j1.37454256313442518822e-01
  +1.70476477757124586510e-02-j1.31930054964735143930e-01
  +1.56252530990201622674e-02-j1.26611828430491735187e-01
  +1.43153600469664837175e-02-j1.21493799296983284730e-01
  +1.31093398184982928151e-02-j1.16570113187292059842e-01
  +1.19991836847522879289e-02-j1.11834876479703290708e-01
  +1.09774649886927241904e-02-j1.07282188973284661748e-01
  +1.00373024009604884521e-02-j1.02906172010120491866e-01
  +9.17232459010713235825e-03-j9.87009925273912153143e-02
  +8.37663641773404160640e-03-j9.46608834760111900186e-02
  +7.64478672945996615834e-03-j9.07801610066479719441e-02
  +6.97173778002774507251e-03-j8.70532387891782277745e-02
  +6.35283630430831091490e-03-j8.34746397984305055218e-02
  +5.78378622461062086302e-03-j8.00390058676659632564e-02
  +5.26062296777333147924e-03-j7.67411052818291194999e-02
  +4.77968935236075705142e-03-j7.35758386552497201105e-02
  +4.33761299627778360022e-03-j7.05382433132017289124e-02
  +3.93128518775948555125e-03-j6.76234963735031224807e-02
  +3.55784115753708142516e-03-j6.48269167031138432433e-02
  +3.21464168662423518605e-03-j6.21439659053611287431e-02
  +2.89925598229354803889e-03-j5.95702484758920403074e-02
  +2.60944575412600313080e-03-j5.71015112496149473964e-02
  +2.34315042229209669761e-03-j5.47336422466167121792e-02
  +2.09847339123459420557e-03-j5.24626690122188751864e-02
  +1.87366932353201075950e-03-j5.02847565348425035170e-02
  +1.66713235075533665677e-03-j4.81962048150754163167e-02
  +1.47738516049394940678e-03-j4.61934461501680576623e-02
