<Qucs Dataset 0.0.19>
<indep frequency 201>
  +1.00000000000000000000e+05
  +1.03724286551264463924e+05
  +1.07587276205688220216e+05
  +1.11594134664288430940e+05
  +1.15750220013590471353e+05
  +1.20061089890615636250e+05
  +1.24532508914713384002e+05
  +1.29170456396176276030e+05
  +1.33981134331945970189e+05
  +1.38970975699102244107e+05
  +1.44146653057224903023e+05
  +1.49515087471132981591e+05
  +1.55083457765931700123e+05
  +1.60859210126744175795e+05
  +1.66850068055964773521e+05
  +1.73064042701348662376e+05
  +1.79509443568749557016e+05
  +1.86194889633830171078e+05
  +1.93129320867604634259e+05
  +2.00322010191225213930e+05
  +2.07782575875999638811e+05
  +2.15520994405220379122e+05
  +2.23547613815005432116e+05
  +2.31873167531990329735e+05
  +2.40508788726375147235e+05
  +2.49466025199520605383e+05
  +2.58756854826000373578e+05
  +2.68393701570759993047e+05
  +2.78389452102800714783e+05
  +2.88757473027604108211e+05
  +2.99511628761342319194e+05
  +3.10666300070774101187e+05
  +3.22236403303620871156e+05
  +3.34237410335135937203e+05
  +3.46685369257542013656e+05
  +3.59596925840002193581e+05
  +3.72989345787821861450e+05
  +3.86880537830647022929e+05
  +4.01289077670533442870e+05
  +4.16234232821910292841e+05
  +4.31735988376655557659e+05
  +4.47815073728736024350e+05
  +4.64492990294150426053e+05
  +4.81792040263241564389e+05
  +4.99735356423828110565e+05
  +5.18346933095034328289e+05
  +5.37651658213184447959e+05
  +5.57675346612668479793e+05
  +5.78444774546281551011e+05
  +5.99987715491200797260e+05
  +6.22332977288478403352e+05
  +6.45510440665717003867e+05
  +6.69551099194438313134e+05
  +6.94487100735580082983e+05
  +7.20351790428541833535e+05
  +7.47179755281264544465e+05
  +7.75006870420975727029e+05
  +8.03870347067439928651e+05
  +8.33808782292875228450e+05
  +8.64862210635070572607e+05
  +8.97072157632721238770e+05
  +9.30481695354574942030e+05
  +9.65135499996642698534e+05
  +1.00107991162449645344e+06
  +1.03836299614053789992e+06
  +1.07703460955910710618e+06
  +1.11714646467538038269e+06
  +1.15875220021721161902e+06
  +1.20190745257238275371e+06
  +1.24666993018718156964e+06
  +1.29309949073580047116e+06
  +1.34125822116374270990e+06
  +1.39121052071227342822e+06
  +1.44302318703493732028e+06
  +1.49676550552130676806e+06
  +1.55250934194740210660e+06
  +1.61032923857667390257e+06
  +1.67030251384006487206e+06
  +1.73250936572844232433e+06
  +1.79703297903566365130e+06
  +1.86395963659567618743e+06
  +1.93337883466240763664e+06
  +2.00538340258673275821e+06
  +2.08006962695055967197e+06
  +2.15753738032401679084e+06
  +2.23789025481792818755e+06
  +2.32123570061016967520e+06
  +2.40768516963114310056e+06
  +2.49735426460050558671e+06
  +2.59036289361445233226e+06
  +2.68683543049028003588e+06
  +2.78690088108263723552e+06
  +2.89069305579386930913e+06
  +2.99835074850913695991e+06
  +3.11001792219559941441e+06
  +3.22584390141384396702e+06
  +3.34598357199898548424e+06
  +3.47059758817846234888e+06
  +3.59985258740350091830e+06
  +3.73392141318151494488e+06
  +3.87298334620741847903e+06
  +4.01722434410293446854e+06
  +4.16683729008448170498e+06
  +4.32202225089216977358e+06
  +4.48298674432480521500e+06
  +4.64994601673866342753e+06
  +4.82312333088111877441e+06
  +5.00275026444402150810e+06
  +5.18906701973605807871e+06
  +5.38232274488818924874e+06
  +5.58277586702170502394e+06
  +5.79069443782443366945e+06
  +6.00635649199714977294e+06
  +6.23005041904960107058e+06
  +6.46207534894326142967e+06
  +6.70274155209652800113e+06
  +6.95237085428727511317e+06
  +7.21129706700752675533e+06
  +7.47986643384581245482e+06
  +7.75843809349408000708e+06
  +8.04738455999825987965e+06
  +8.34709222089480981231e+06
  +8.65796185389923863113e+06
  +8.98040916283760964870e+06
  +9.31486533353769406676e+06
  +9.66177761042303778231e+06
  +1.00216098945810962468e+07
  +1.03948433641051724553e+07
  +1.07819771175395492464e+07
  +1.11835288412884883583e+07
  +1.16000355018813814968e+07
  +1.20320540640198439360e+07
  +1.24801622353670075536e+07
  +1.29449592390747703612e+07
  +1.34270666150822900236e+07
  +1.39271290512571223080e+07
  +1.44458152454903423786e+07
  +1.49838187998986542225e+07
  +1.55418591483291182667e+07
  +1.61206825184067953378e+07
  +1.67210629294118657708e+07
  +1.73438032273204214871e+07
  +1.79897361583932749927e+07
  +1.86597254827482812107e+07
  +1.93546671294051483274e+07
  +2.00754903943475931883e+07
  +2.08231591832046732306e+07
  +2.15986733002131432295e+07
  +2.24030697851845324039e+07
  +2.32374243002645596862e+07
  +2.41028525683395564556e+07
  +2.50005118650133349001e+07
  +2.59316025661493092775e+07
  +2.68973697530477643013e+07
  +2.78991048774044029415e+07
  +2.89381474882767237723e+07
  +3.00158870233676955104e+07
  +3.11337646670217216015e+07
  +3.22932752774179168046e+07
  +3.34959693855376094580e+07
  +3.47434552685788571835e+07
  +3.60374011005911305547e+07
  +3.73795371832056865096e+07
  +3.87716582594446912408e+07
  +4.02156259137034192681e+07
  +4.17133710611143112183e+07
  +4.32668965296224057674e+07
  +4.48782797382246553898e+07
  +4.65496754749542027712e+07
  +4.82833187783251926303e+07
  +5.00815279260905161500e+07
  +5.19467075353096202016e+07
  +5.38813517778718620539e+07
  +5.58880477157746404409e+07
  +5.79694787606174722314e+07
  +6.01284282619372680783e+07
  +6.23677832291833162308e+07
  +6.46905381923095807433e+07
  +6.70997992061463817954e+07
  +6.95987880039063096046e+07
  +7.21908463053788691759e+07
  +7.48794402855741083622e+07
  +7.76681652097917944193e+07
  +8.05607502413139492273e+07
  +8.35610634281489849091e+07
  +8.66731168754971176386e+07
  +8.99010721108530163765e+07
  +9.32492456489200145006e+07
  +9.67221147637783288956e+07
  +1.00324323476024329662e+08
  +1.04060688762888893485e+08
  +1.07936206999638348818e+08
  +1.11956060640870869160e+08
  +1.16125625150644347072e+08
  +1.20450476190701603889e+08
  +1.24936397076405823231e+08
  +1.29589386510356798768e+08
  +1.34415666604028195143e+08
  +1.39421691198154389858e+08
  +1.44614154492992758751e+08
  +1.50000000000000149012e+08
</indep>
<dep dBS11 frequency>
  -2.86017597934190112479e-10
  -4.12308815946561738732e-10
  -5.94370948670523451158e-10
  -8.56825204993915330869e-10
  -1.23518005091469123855e-09
  -1.78061620244367457175e-09
  -2.56692785473733045577e-09
  -3.70049286383372512379e-09
  -5.33468462076336231696e-09
  -7.69062052157557920090e-09
  -1.10870917994501513061e-08
  -1.59837181442592024815e-08
  -2.30431632200261078281e-08
  -3.32208653404678545895e-08
  -4.78943846506739896909e-08
  -6.90499643502582894194e-08
  -9.95515231327975546332e-08
  -1.43528567088280267148e-07
  -2.06935609270453496086e-07
  -2.98358922101708314944e-07
  -4.30180046033606627216e-07
  -6.20253857459154353193e-07
  -8.94328876937251896390e-07
  -1.28953825080413956578e-06
  -1.85943530146552102982e-06
  -2.68125737018659310426e-06
  -3.86640451207310678643e-06
  -5.57555687973692501019e-06
  -8.04048528859988432659e-06
  -1.15955205976284843138e-05
  -1.67229622022640596834e-05
  -2.41186045184246119718e-05
  -3.47863016662943634822e-05
  -5.01744491511923107127e-05
  -7.23729784940478496416e-05
  -1.04397717677533636302e-04
  -1.50600896519129090999e-04
  -2.17263801230133059197e-04
  -3.13452460354131856243e-04
  -4.52253169036358052858e-04
  -6.52556520555820987473e-04
  -9.41633447500668779168e-04
  -1.35885466986352689521e-03
  -1.96106032213145880724e-03
  -2.83030986540067129933e-03
  -4.08506251409007474507e-03
  -5.89629534968407528067e-03
  -8.51071445136723260527e-03
  -1.22841251055197352160e-02
  -1.77292885059112947932e-02
  -2.55843004931069657737e-02
  -3.69097586401620769703e-02
  -5.32257209759768590285e-02
  -7.67024345091578685363e-02
  -1.10421181079072810993e-01
  -1.58721340565297408531e-01
  -2.27642781745996614085e-01
  -3.25451578816911613057e-01
  -4.63190840774777012889e-01
  -6.55115972746063812693e-01
  -9.18756537940479511839e-01
  -1.27423682088609635521e+00
  -1.74249635313792761160e+00
  -2.34234022496278271319e+00
  -3.08686978035246362140e+00
  -3.98050697854826829314e+00
  -5.01792964417456577308e+00
  -6.18544508331372888676e+00
  -7.46413302036299874942e+00
  -8.83340493222345202184e+00
  -1.02738347081943093286e+01
  -1.17688036402908160483e+01
  -1.33050884036822232304e+01
  -1.48727661757240703366e+01
  -1.64647966773143217267e+01
  -1.80765261434186932377e+01
  -1.97052455762194860256e+01
  -2.13498599621737419341e+01
  -2.30106854822180473263e+01
  -2.46893770687778086881e+01
  -2.63889893352846804930e+01
  -2.81141847350901912250e+01
  -2.98716232270438979413e+01
  -3.16706022032146421452e+01
  -3.35240761104657352121e+01
  -3.54502998374040956264e+01
  -3.74755737159031738770e+01
  -3.96390861197112798209e+01
  -4.20021170836145358862e+01
  -4.46673817116404876515e+01
  -4.78258591088738853614e+01
  -5.18974952866905070437e+01
  -5.81557814053628305828e+01
  -7.93568366868363028743e+01
  -6.11413894303506708638e+01
  -5.51709182735904235528e+01
  -5.19904788781606015391e+01
  -4.98748462350950916289e+01
  -4.83147576843338271146e+01
  -4.70898213121549105153e+01
  -4.60849268598124623963e+01
  -4.52327127643100084242e+01
  -4.44906532665652321157e+01
  -4.38304228036302845339e+01
  -4.32323962461044501993e+01
  -4.26825656223375275999e+01
  -4.21706994980470142309e+01
  -4.16891877205784311400e+01
  -4.12322862656485682464e+01
  -4.07956069214189227523e+01
  -4.03757628465466069656e+01
  -3.99701167445288945146e+01
  -3.95765985381115896757e+01
  -3.91935712559440787572e+01
  -3.88197310407133358012e+01
  -3.84540317072812527499e+01
  -3.80956271981917709013e+01
  -3.77438272170122175453e+01
  -3.73980626288971009785e+01
  -3.70578581212150908186e+01
  -3.67228102507385827380e+01
  -3.63925694539499176017e+01
  -3.60668249194393197854e+01
  -3.57452914532617356258e+01
  -3.54276976345843195304e+01
  -3.51137746773053152083e+01
  -3.48032454958048020899e+01
  -3.44958135285186173746e+01
  -3.41911509084203117936e+01
  -3.38888855903940040548e+01
  -3.35885870570203195484e+01
  -3.32897502318420279721e+01
  -3.29917772389364927221e+01
  -3.26939566674052244366e+01
  -3.23954400393764387900e+01
  -3.20952152537262875853e+01
  -3.17920769024076079745e+01
  -3.14845935541166568328e+01
  -3.11710723976885297759e+01
  -3.08495220650818602337e+01
  -3.05176150409573736511e+01
  -3.01726518355249311298e+01
  -2.98115300536600891235e+01
  -2.94307226039431668596e+01
  -2.90262704641511639636e+01
  -2.85937964772035115857e+01
  -2.81285473109868533470e+01
  -2.76254705915031379959e+01
  -2.70793328690724841579e+01
  -2.64848811129622276894e+01
  -2.58370456959537300179e+01
  -2.51311766260347013713e+01
  -2.43632980353467871737e+01
  -2.35303602065357111428e+01
  -2.26304656143322873163e+01
  -2.16630472738715660341e+01
  -2.06289848897478833578e+01
  -1.95306562547378064210e+01
  -1.83719360136745599732e+01
  -1.71581683954647985502e+01
  -1.58961518787160205335e+01
  -1.45941794708235441647e+01
  -1.32621758935049847139e+01
  -1.19119587423568766837e+01
  -1.05576177254643042147e+01
  -9.21594363797848004083e+00
  -7.90673678438250959744e+00
  -6.65269067386645041040e+00
  -5.47843927586324408452e+00
  -4.40841298705135553604e+00
  -3.46353933439950356643e+00
  -2.65754503980327116963e+00
  -1.99424994300663671609e+00
  -1.46712978932116122621e+00
  -1.06138654514153629727e+00
  -7.57535374283827334096e-01
  -5.35038379756942350518e-01
  -3.74946316192544593093e-01
  -2.61269600052568884418e-01
  -1.81329377798304269831e-01
  -1.25501781767210940366e-01
  -8.67025100852873015222e-02
  -5.98273506545137015444e-02
  -4.12532021461713416244e-02
  -2.84346896650925912153e-02
  -1.95962059307081479242e-02
  -1.35050730084246145557e-02
  -9.30829379752338460785e-03
  -6.41686070042897516164e-03
  -4.42460672893975164033e-03
  -3.05167747610339198938e-03
  -2.10533561692896218839e-03
  -1.45286670624073313562e-03
  -1.00288744626235676143e-03
  -6.92466831195584996660e-04
  -4.78259031734416936374e-04
  -3.30400730604181111505e-04
  -2.28311639875818539903e-04
  -1.57804585329346781872e-04
  -1.09096491230571465540e-04
  -7.54391120447876805180e-05
</dep>
<dep dBS21 frequency>
  -1.01813929935235748303e+02
  -1.00225615895189235971e+02
  -9.86372815606543582589e+01
  -9.70489254029145627101e+01
  -9.54605457790059404033e+01
  -9.38721409233228030189e+01
  -9.22837089386303546235e+01
  -9.06952477864460320234e+01
  -8.91067552767507038425e+01
  -8.75182290569885878995e+01
  -8.59296666003141353940e+01
  -8.43410651930436614521e+01
  -8.27524219212690894665e+01
  -8.11637336565915745723e+01
  -7.95749970409363100998e+01
  -7.79862084704120945844e+01
  -7.63973640781869960392e+01
  -7.48084597163611562110e+01
  -7.32194909368337079059e+01
  -7.16304529711838000594e+01
  -7.00413407096197317969e+01
  -6.84521486791001336769e+01
  -6.68628710208022170036e+01
  -6.52735014672163629257e+01
  -6.36840333192949614727e+01
  -6.20944594242983782806e+01
  -6.05047721552899702147e+01
  -5.89149633936767784803e+01
  -5.73250245168321015399e+01
  -5.57349463937584843620e+01
  -5.41447193930758103875e+01
  -5.25543334095329726097e+01
  -5.09637779179970209498e+01
  -4.93730420678507968546e+01
  -4.77821148364641032913e+01
  -4.61909852686792419263e+01
  -4.45996428411958660831e+01
  -4.30080780079805791161e+01
  -4.14162830077178441002e+01
  -3.98242530502474352261e+01
  -3.82319880507925873303e+01
  -3.66394951555947443467e+01
  -3.50467924104249988204e+01
  -3.34539140787431534818e+01
  -3.18609183394937822698e+01
  -3.02678984144784308796e+01
  -2.86749986319323753037e+01
  -2.70824375807346342526e+01
  -2.54905414199137680953e+01
  -2.38997916687802316460e+01
  -2.23108935102292704755e+01
  -2.07248728692757779868e+01
  -1.91432132642160190983e+01
  -1.75680464004942962220e+01
  -1.60024128438368649086e+01
  -1.44506088579443492392e+01
  -1.29186284973623486394e+01
  -1.14146889274536960102e+01
  -9.94978072425686832503e+00
  -8.53810242810319586226e+00
  -7.19712146051782397649e+00
  -5.94689342790350394807e+00
  -4.80828097282787858546e+00
  -3.80000186612647405937e+00
  -2.93505676832375117513e+00
  -2.21774972497775912927e+00
  -1.64261833525467926265e+00
  -1.19580070516248349044e+00
  -8.58169666458662661057e-01
  -6.08880723159437198255e-01
  -4.28187854581437599144e-01
  -2.99069135629077664795e-01
  -2.07789463103142835187e-01
  -1.43772723096456805925e-01
  -9.91407618111729838084e-02
  -6.81608950000835434047e-02
  -4.67298244876907589718e-02
  -3.19443867636316353176e-02
  -2.17672553146967644178e-02
  -1.47769649489702930428e-02
  -9.98583932996213209654e-03
  -6.70967181209795263813e-03
  -4.47554312828276571606e-03
  -2.95714036614785251780e-03
  -1.92962615887278519412e-03
  -1.23827253322034277691e-03
  -7.76722302056498175790e-04
  -4.71953593061864482526e-04
  -2.73896383354666731087e-04
  -1.48270090835492924196e-04
  -7.16476553437988948224e-05
  -2.80566739638359663792e-05
  -6.64058749013529629594e-06
  -5.03617312567300960928e-08
  -3.33922386317631329273e-06
  -1.32036238716627524328e-05
  -2.74623562491571024434e-05
  -4.46994235801804253591e-05
  -6.40194212680173077492e-05
  -8.48802058387352579161e-05
  -1.06978615796849728446e-04
  -1.30172589261200828334e-04
  -1.54428234371352260737e-04
  -1.79783992273343878020e-04
  -2.06326496128247374381e-04
  -2.34174422421518552183e-04
  -2.63467793810967943879e-04
  -2.94360991576040047918e-04
  -3.27018284200361695341e-04
  -3.61611055447418918134e-04
  -3.98316174557532937626e-04
  -4.37315129317571702795e-04
  -4.78793666546283155569e-04
  -5.22941770032489452319e-04
  -5.69953867029172520607e-04
  -6.20029198255133578467e-04
  -6.73372319352547542802e-04
  -7.30193728864436436728e-04
  -7.90710640964795478079e-04
  -8.55147943945133649953e-04
  -9.23739409606855513789e-04
  -9.96729245791792969542e-04
  -1.07437411664586322628e-03
  -1.15694579508206999569e-03
  -1.24473466090250367566e-03
  -1.33805432014613961272e-03
  -1.43724769932742821830e-03
  -1.54269506741586885472e-03
  -1.65482456467656749259e-03
  -1.77412597945414635472e-03
  -1.90116872152242617940e-03
  -2.03662521044819340085e-03
  -2.18130124833014558267e-03
  -2.33617540865584550486e-03
  -2.50245008647120023917e-03
  -2.68161767774220292579e-03
  -2.87554647056003764155e-03
  -3.08659235637376468120e-03
  -3.31774457873609471270e-03
  -3.57281668087294865949e-03
  -3.85669795742945003408e-03
  -4.17568659483909861846e-03
  -4.53793408038503324337e-03
  -4.95404251678528782105e-03
  -5.43787387228129165395e-03
  -6.00765537520299517521e-03
  -6.68750180710967010583e-03
  -7.50952857985273496133e-03
  -8.51680679141512443631e-03
  -9.76752394730521014687e-03
  -1.13408775734121364254e-02
  -1.33454662444739569765e-02
  -1.59312857930982224031e-02
  -1.93069325632253679936e-02
  -2.37643217713234614075e-02
  -2.97142277804507207173e-02
  -3.77373433446497735799e-02
  -4.86574434471945399538e-02
  -6.36457060818518410850e-02
  -8.43682528050833657751e-02
  -1.13192184193433090234e-01
  -1.53467760659725810379e-01
  -2.09903473475564622541e-01
  -2.89041609230750506931e-01
  -3.99815821794521297772e-01
  -5.54116701115124787869e-01
  -7.67195131834926935532e-01
  -1.05760334731013316834e+00
  -1.44626826701304200817e+00
  -1.95434932237562253299e+00
  -2.59992357720657274456e+00
  -3.39426068244474432589e+00
  -4.33908295504885721527e+00
  -5.42609123799149273282e+00
  -6.63899782495179469066e+00
  -7.95707734708412317559e+00
  -9.35876682096681555834e+00
  -1.08242766595735773194e+01
  -1.23369342172958518233e+01
  -1.38835106355989417182e+01
  -1.54539439750713558652e+01
  -1.70408055390630615022e+01
  -1.86387247348336480002e+01
  -2.02438767376219459493e+01
  -2.18535677732658761840e+01
  -2.34659175849267711556e+01
  -2.50796245364121261900e+01
  -2.66937956040248778322e+01
  -2.83078250326154261529e+01
  -2.99213084737799661639e+01
  -3.15339825399146747031e+01
  -3.31456823614562381408e+01
  -3.47563118098263075240e+01
  -3.63658225968384911653e+01
  -3.79741995842906803205e+01
  -3.95814504377426601422e+01
  -4.11875983224433355190e+01
  -4.27926767340101932291e+01
  -4.43967258314380401885e+01
  -4.59997898311585231568e+01
  -4.76019151536208866560e+01
</dep>
<dep S[1,1] frequency>
  +9.50934558728013024087e-01-j3.09392089347645116160e-01
  +9.47234903336345079872e-01-j3.20540228062637266859e-01
  +9.43258180650726640870e-01-j3.32060242273329309093e-01
  +9.38983941792486009881e-01-j3.43960981593194548012e-01
  +9.34390276698286670332e-01-j3.56251049861314117440e-01
  +9.29453717502761844749e-01-j3.68938730157588878900e-01
  +9.24149136839155227463e-01-j3.82031899569116317750e-01
  +9.18449641027668461923e-01-j3.95537932497095789941e-01
  +9.12326458175115706517e-01-j4.09463591159570983180e-01
  +9.05748821276412208192e-01-j4.23814901797422705076e-01
  +8.98683846490724747014e-01-j4.38597014927984030219e-01
  +8.91096406865641288420e-01-j4.53814047811167298185e-01
  +8.82949001904730579326e-01-j4.69468907095619725212e-01
  +8.74201623521194903788e-01-j4.85563089395724400976e-01
  +8.64811619097465511530e-01-j5.02096457312666943906e-01
  +8.54733552582740196968e-01-j5.19066988152729891226e-01
  +8.43919064813740016362e-01-j5.36470492311848845546e-01
  +8.32316734545448522198e-01-j5.54300297985602763440e-01
  +8.19871942036587419977e-01-j5.72546898526636871551e-01
  +8.06526737458742815079e-01-j5.91197558405375911406e-01
  +7.92219716899670967081e-01-j6.10235873333249689843e-01
  +7.76885909323569934237e-01-j6.29641279678970433586e-01
  +7.60456678549449538451e-01-j6.49388507846209384056e-01
  +7.42859645131307866350e-01-j6.69446973783791254853e-01
  +7.24018633991981408471e-01-j6.89780102265697636632e-01
  +7.03853654801657735440e-01-j7.10344575005830813907e-01
  +6.82280923432330266287e-01-j7.31089496059260546268e-01
  +6.59212934397449878965e-01-j7.51955466304030539781e-01
  +6.34558596046249867584e-01-j7.72873558090435341938e-01
  +6.08223442479866593935e-01-j7.93764180379927131170e-01
