!Keysight Technologies N9926A: A.10.18
!Date: Saturday, 25 July 2020 16:56:03
!Timezone: 
!Model: N9926A
!Serial: MY57271140
!GPS Latitude: 
!GPS Longitude: 
!GPS TimeStamp: 0001-01-01 00:00:00Z
!GPS Seconds Since Last Read: 0
!CHECKSUM:1425379525
!Correction: S11(ON U)S21(ON U)S12(ON U)S22(ON U)
!S2P File: Measurements:S11,S21,S12,S22:
# Hz S DB R 50
500000	-0.285441452257163	0.176672079552601	21.3008943624238	-113.764853308848	-61.2432675859325	169.581257978345	-1.56456293195432	152.643681121735	
750000	-0.113134091067637	1.40182463461399	24.3053147482844	-125.183075462437	-52.7043551002076	-9.30822137797377	-2.41941047340586	122.469772794388	
1000000	-0.281496698838643	-0.323060637085957	25.5949530197726	-138.721097346921	-49.0030748704817	101.201229233046	-3.41064281072213	105.445040050408	
1250000	-0.321544313423793	-0.922525128331029	26.9160356291719	-145.8071149866	-47.4546305166369	102.166334871355	-3.55905059293895	93.2828686238741	
1500000	-0.411032667819925	-2.81330850572378	27.4674331388792	-149.47124207977	-53.3535725490762	70.6260751206181	-3.89688428930936	76.5720577355733	
1750000	-0.0900631533244703	-3.23744244208808	27.4699546586594	-150.876176372168	-58.4808556702373	115.887481144121	-4.87876131506235	76.1837249886987	
2000000	-0.0800884263265918	-3.17855337541112	28.1330232819696	-157.75360300958	-48.624687338503	68.9048691618858	-4.21042644801182	64.8497788562258	
2250000	-0.507170349870147	-3.01335603877999	27.5013774969076	-158.383723011416	-45.6825634096791	72.9167995902376	-4.78747279405336	58.1871967171901	
2500000	-0.344021500341409	-8.20620860001177	28.4314706602649	-163.785753448001	-51.6758068947348	140.312372809231	-5.79610455167325	55.1242218241322	
2750000	-0.164919837116018	-8.44291047082641	28.4855214915166	-164.671762344261	-47.2068732603312	82.6995186013707	-5.72443501565556	49.7511471601748	
3000000	-0.0533294149061524	-6.61027658106552	29.0282873951457	-162.780691841819	-51.5053329726749	74.1553324011775	-6.22021058191683	40.601240455832	
3250000	-0.0705315074294769	-9.5348347247386	28.7997308438256	-165.698464199267	-47.8564054482716	137.5156300257	-6.09810917614302	39.5373758662962	
3500000	-0.0706911764095079	-6.84316593506333	28.787829873709	-168.548938742189	-42.0301678390762	74.9079170240267	-6.22707707285767	33.0317270115696	
3750000	0.112590088221644	-9.45346215764233	28.5448266201595	-166.945020008358	-47.2002998980346	58.9081024938565	-6.05823751884307	22.6100281190195	
4000000	0.239791221515301	-7.58417445043971	28.5447271989971	-169.942225551328	-45.2372972281416	59.0823749489567	-6.12747712631451	21.9069238372725	
4250000	0.0142515796732174	-9.1554242857185	28.4676873259878	-169.547351608845	-42.104584644028	72.5663961833109	-6.03609498206631	21.220852538841	
4500000	-0.273376314948867	-12.8011004638008	29.1474863443001	-174.670529423138	-40.9717179481064	67.8526856507548	-6.25817951767826	24.7698095309768	
4750000	-0.485631283645982	-9.55654498019859	29.2010537323371	-174.132531671012	-41.5948462501437	94.6223837820916	-6.35642724075367	25.3399593893918	
5000000	0.0574207975617618	-12.0858381550772	28.9501479804769	-178.59004055683	-39.1499887010369	59.5390633100649	-6.03615377290346	22.215504512891	
5250000	-0.140727952399844	-8.68763131501097	28.6729344667612	-173.390292178809	-36.9262315993415	88.4846539175548	-5.56070555228944	17.6495435249444	
5500000	-0.503133737396689	-9.79555953201356	28.4673452479865	-177.941451312653	-41.7932649085093	108.241986334334	-7.19654439121578	18.3273301377616	
5750000	-0.492660793505256	-9.4500413533971	28.9513591381452	-173.133926481595	-39.0821338261758	83.9127068260769	-6.36124060355116	8.57890192690559	
6000000	-0.353778507062192	-14.2302642741549	29.5872474385127	-179.002513365961	-42.3963963593353	65.837702327641	-7.0036327919381	6.08872900032392	
6250000	-0.9215065348287	-14.764006227353	28.4986247312826	179.956241637487	-39.6934042202141	79.2270775981739	-5.74344934003472	12.445199164101	
6500000	-0.717012534010891	-15.7224741601621	29.2924664990865	177.363705354309	-38.3276151095235	72.2743307043148	-5.89719568398752	9.51187093669505	
6750000	-0.701012109406868	-16.2417665970393	29.389357768724	179.506692186697	-40.1633157268444	87.9234147798214	-6.37365412193239	7.55895999225162	
7000000	-0.3570420679056	-11.7479339370326	28.4516999010529	178.328267080671	-35.7425380453167	79.4705093371626	-5.74573961498559	10.6216338355652	
7250000	-0.406737499057021	-13.4383291432175	28.1646432905174	-178.163660755593	-38.808944862347	68.5167814494993	-6.02265109945975	-0.283440390033721	
7500000	-0.702492256454555	-15.9411689094741	29.1619617071651	-178.957170922266	-41.2065702390301	86.9306720984089	-7.67076141160757	2.0521223929032	
7750000	-0.772348581563411	-13.7154095573358	28.400432086392	178.481506044368	-37.2513488245852	76.8466400372165	-6.14943676144831	6.42206245594262	
8000000	-0.566661799653225	-16.7153086214531	27.8958854893318	176.185831189761	-36.9907652621724	61.0131881469156	-6.55228783450359	-0.262726328594015	
8250000	-0.951556747287045	-10.6571155860264	28.0576886317547	176.177955105423	-36.3436921307324	77.9343473625194	-6.91096012497508	6.78544740510832	
8500000	-0.690678608938254	-15.1453825122717	28.5471909984628	179.43978890864	-37.8882052693886	64.8950861274878	-6.44872645521289	-1.58283346449143	
8750000	-1.2078043169935	-19.5737377637623	28.687709717886	173.911606740083	-38.67552623691	77.7553349050022	-7.93870680854438	1.30179931494377	
9000000	-1.10618508667716	-22.2399080048368	28.7235429067787	172.376368535529	-36.7760376426658	54.0511301738553	-7.04887256473113	-9.84126947323474	
9250000	-1.01245959442508	-18.6352475556889	28.5408897741655	175.360763459398	-36.9768545365389	70.9735723232948	-6.81515868843299	-6.75348542964804	
9500000	-1.11253781825451	-18.6264492322188	28.3028385131175	174.943383302272	-36.7549280979421	65.8413785545564	-7.32788531386673	-4.3318051872068	
9750000	-1.301413077309	-17.6834350543327	28.2374494006533	174.762664160033	-36.2259138266061	60.8738100349031	-6.83386445343877	-5.0272226383349	
10000000	-0.764789402551788	-20.7124363280966	28.1557038099256	174.988766104192	-35.5177410959732	60.6628504253082	-7.08855489110082	-11.830114554685	
10250000	-0.760057572281753	-23.35737032318	28.6349236236462	170.935943934256	-37.2076023417001	52.4982382694858	-7.52255215969298	-16.6465469598179	
10500000	-1.0335372230842	-26.3136132385224	28.5085769977896	174.479418578702	-34.9574836680969	54.3247789076645	-8.01841620101905	-13.5024853668315	
10750000	-1.4535027325912	-20.1342452765842	28.4933489064619	173.681079602463	-35.6176333435186	68.0423800649434	-7.90907936919977	-6.12496208398396	
11000000	-1.36692120899783	-21.2863106507684	28.4495960039431	172.00973522312	-35.7735953800059	69.7567589488216	-7.31275189999534	-9.16090437270768	
11250000	-1.20159735622071	-20.7037027401254	28.175942841931	174.505442500101	-35.2450709840327	60.9731836566315	-7.63199197123761	-11.87595232717	
11500000	-1.34425943472451	-21.4666996248851	28.0480584838533	172.917831063319	-35.9257568934767	63.8446064177142	-8.2517142852269	-10.9433878060982	
11750000	-1.86656035753815	-22.0507409748814	27.9233701684922	169.508853348878	-34.7976904462284	61.1893824934388	-8.39653409026186	-5.72968530140001	
12000000	-0.956735142596445	-22.2364416859162	28.2291386150179	174.594769377724	-33.9552536373626	51.9183147314637	-6.20547430235041	-15.1649355875228	
12250000	-1.29769844168637	-22.2483525954806	27.9357672047941	173.070641722276	-35.1892012988103	63.9169730333204	-7.42164654031597	-8.43399540391674	
12500000	-1.47459467292013	-24.2538565299371	28.0630871949883	171.802933338855	-34.7344543434217	58.3154661909652	-8.27982169910364	-13.4558093085382	
12750000	-1.66931715407564	-26.4700566502034	28.2864984039982	169.76501383914	-35.5236194688175	54.9635963505297	-7.80380284621246	-21.7596937899708	
13000000	-1.74736257675342	-21.7454489979957	28.3918609145372	173.795023467942	-35.3468062173079	63.5626218527709	-7.82970382551074	-18.1732525254564	
13250000	-2.09484752509199	-26.5008467934421	28.5065264404221	170.753993896968	-35.1782723657207	57.7735659532766	-8.44682222377224	-22.4075850830488	
13500000	-2.2649829707344	-24.488541840077	27.9574056020254	170.731801888963	-36.0019173555249	56.2128979442855	-9.06663777886839	-15.8161256203773	
13750000	-2.44538975374736	-25.1469438126119	28.4670370384371	169.908412769899	-36.3205174367997	64.5862230345707	-8.05437686952594	-12.9265394993729	
14000000	-2.547956210673	-29.7220221743143	27.9940239379763	161.139921836288	-33.2477328282167	43.2022390926772	-9.07609323136171	-18.1914970814651	
14250000	-1.5243902819669	-27.6488442376165	28.3915249045802	170.404573562109	-34.538406354483	40.7039287953296	-7.99580306308536	-21.5773570230613	
14500000	-1.53708272029067	-27.4295228039935	28.0013276155443	168.931054307312	-34.1446751720523	62.879093524454	-8.53965267090861	-22.434407425589	
14750000	-1.92920874325289	-27.0342373657956	27.9043294893752	168.389551157226	-32.4316095618386	49.2411873243889	-8.58214275351425	-22.7843727777099	
15000000	-2.83094664904783	-25.3231571199252	27.8271932401948	167.133535341128	-35.7585922087261	42.8164458469046	-9.99430713414655	-23.5787964776415	
15250000	-1.78647007563214	-27.4947456854385	28.1572665098637	168.045093890223	-32.4696914947989	55.0106538805981	-7.85555276378813	-24.3958814574701	
15500000	-2.1334754715693	-30.0804025447973	28.2936583071882	168.843645556306	-34.1381475347488	45.7730937617553	-8.57903637286454	-32.9860515440516	
15750000	-2.11230896949313	-27.8695267567396	28.1441398025263	168.790755926972	-33.4892859355216	52.6775384895773	-9.60913896854462	-24.8921968405698	
16000000	-2.97343417439197	-29.3964183300845	27.9398003044753	164.681201298781	-34.5799812154363	43.0730560594235	-9.95676089603134	-26.0146604444678	
16250000	-1.6284095134937	-33.2216455976124	28.0550267651496	166.604414198705	-31.9981794655681	48.974285868157	-8.4550087276003	-30.7236234929177	
16500000	-2.41051794488343	-26.1492186001353	27.8750364456724	164.768733804133	-33.1100373390238	54.7939389686142	-10.0179560726856	-24.4285415762849	
16750000	-2.74315805576018	-29.9370528363062	27.8922900618554	165.412444810604	-32.3298633226803	44.0465080603432	-10.0721710482416	-22.8822005700439	
17000000	-1.64427269693058	-33.4237870840907	28.8594194106663	165.971293808398	-31.4939117839745	44.6512143764512	-8.32904161185282	-41.8733375932494	
17250000	-2.62566446905841	-28.2844746065228	28.1991306579993	167.414106064469	-33.4164667816746	39.3673032180029	-9.52033430448927	-28.8455894188605	
17500000	-2.77392679300914	-31.0132958594087	27.9562189902249	163.388635402064	-33.4627489992759	57.8955699940109	-9.56429191805883	-27.890709120072	
17750000	-2.45478338545474	-33.5414717596455	27.9920317655189	167.836815537564	-32.6084065204097	41.0662308695789	-9.20710582449001	-32.8166129213436	
18000000	-2.46422062501282	-29.8490904703377	28.0206197743448	168.355064609637	-33.5979621576917	57.3293691119897	-8.97667871762703	-30.3993252794272	
18250000	-2.38041500945475	-29.7235844278482	26.9655844014034	165.372194156688	-31.2078947113637	44.6249843322731	-8.34122774262565	-25.7575368693256	
18500000	-3.14557931402934	-30.2278004978626	28.2284763761299	164.979028179626	-34.9214702431511	56.2279707013489	-9.57363167135817	-20.8055721178523	
18750000	-2.41098814157533	-24.8637031750947	27.4506821132164	166.028592611862	-32.1611332715485	56.6456594164056	-7.98416853634994	-25.7123226472403	
19000000	-3.16749135355259	-32.5299377998334	27.8417172634464	165.250207207855	-33.1256032848259	35.7620871126624	-11.2050258866018	-41.0780485105218	
19250000	-3.10998966548466	-29.153428785746	27.5257437788538	163.326491055658	-31.8771310976475	49.80214420081	-9.15653872220573	-26.4069565385994	
19500000	-2.83505914223497	-29.8300085151907	27.3965427631401	166.866822673206	-31.6499155124126	47.701685805524	-8.72180654508754	-29.3175062561336	
19750000	-2.60256991266082	-30.051750153287	27.7289396652361	165.985067322952	-32.5645926721841	36.2680978406422	-9.85388029721307	-36.4636124150507	
20000000	-3.17630192705947	-34.3641931607849	27.7044840813253	165.282610412899	-31.90254169421	28.8806225492969	-11.1629555792385	-35.2068976109809	
20250000	-2.84153235991434	-35.7184116168144	27.5174804785108	165.576597018668	-32.324205868923	40.6755614248741	-9.96802078576688	-33.9855472758905	
20500000	-3.8442407901655	-33.6764306367794	27.5010574596961	164.406781378153	-32.9063208962682	34.0904751822273	-10.0469676564259	-35.3192364390774	
20750000	-3.51276659705854	-34.3636753578659	27.548435432643	159.15395181533	-32.8846158301638	48.0057149118627	-10.5662665994481	-33.7745009069652	
21000000	-2.2966423602723	-30.401142004984	27.4347547086861	165.130527331167	-32.7766609290435	46.0637443398456	-8.33476918396607	-31.9776439415488	
21250000	-3.89341270195377	-31.8943280733098	27.6597033610963	164.081489581891	-33.1560409811276	32.7642440267799	-11.3497693614524	-32.6294837699271	
21500000	-3.49436434695976	-34.9448199228009	27.4892960781853	162.665940019823	-30.7889280821289	32.5950228598385	-10.6446597707197	-33.7171690142356	
21750000	-3.23434701497652	-30.0510257951377	27.5782757563549	165.655922644123	-33.0029369720658	53.0737502870223	-10.1749162257415	-30.9593847255097	
22000000	-3.49230766057693	-33.2912805053958	27.8054455599335	166.070069380261	-32.7699722198149	42.309229498895	-11.0581517482875	-34.3186340813261	
22250000	-3.72073567566455	-33.7793629812581	27.2235740114408	163.095385942634	-31.577736120352	41.8660902911369	-10.8737485505561	-30.1014315122607	
22500000	-3.60503540105273	-32.131893230118	27.0666630368787	162.919959243072	-32.6193902251754	43.1857039313741	-12.2582015265896	-23.9541921425832	
22750000	-3.00435212065067	-34.9785684732274	27.583617716578	165.686990992978	-32.3099076925137	38.9727459461394	-10.5353314212301	-40.7421539737646	
23000000	-3.28407656993699	-36.164675410548	27.3405459660546	163.113591435388	-31.7876541131963	35.5177483239779	-9.90862041175866	-41.6163005726577	
23250000	-3.96905203654207	-35.0076276716932	27.6032709298636	163.254146788301	-32.1555370620689	23.2853379528067	-11.4328396399025	-31.547536468155	
23500000	-4.55956523474007	-31.4992228595422	26.963409459594	162.513702170199	-32.8629726726162	35.0404196178219	-11.4088531550441	-34.1885106276366	
23750000	-4.25012694369121	-29.1312800209326	27.1197450179567	163.974994503379	-33.6166072681092	28.33861757009	-10.3654530956202	-29.9066046362886	
24000000	-2.5952119243206	-42.6807885397819	28.1685471585381	162.921066674953	-31.0361594912994	33.2752325610856	-9.94222299523285	-44.0288345763256	
24250000	-3.43546059045079	-39.1140360669861	27.141873976012	163.264055258265	-31.7823742418166	36.5311987524578	-11.7832845389644	-40.9385322162269	
24500000	-3.77010553834944	-36.5606457166901	27.6583369977006	160.957262236976	-29.6819903994825	34.4221990291926	-9.81292049228207	-51.4292791608093	
24750000	-4.08891066668464	-34.5567641305341	27.2583014948935	161.73567855705	-31.3765148218463	34.6169812981763	-10.9779762642011	-42.0022356384941	
25000000	-4.18816754243002	-34.4551502808388	26.9200488328429	165.392191227336	-31.4638998750812	34.1348035744048	-10.4459162786677	-39.7144952997843	
25250000	-4.40582888408034	-36.8227152228159	27.4379994053915	164.02131507312	-33.1749787669796	31.3228996586992	-11.5174648848346	-45.720080899836	
25500000	-4.20778501818647	-32.2361782525589	27.2945869467875	163.953335868672	-33.7872994267599	44.9663953300845	-11.2252811052266	-28.526017073394	
25750000	-4.39793866424243	-38.6954199884433	27.2631865874144	162.508022548334	-31.5631884573073	31.7086220976396	-10.9650138932528	-47.0394032711464	
26000000	-4.19172163650511	-34.9643960988427	27.1154299431865	162.967557714706	-32.7221412887612	43.2047159378333	-11.3637969100464	-40.3889291344969	
26250000	-3.71628890398742	-35.9993251702782	27.5725538409973	163.567894994732	-30.6196488075298	45.9185776669092	-9.4314336832376	-43.6280510998058	
26500000	-4.8422152705599	-35.6320890229776	27.0357984694213	158.951732791298	-31.6278216496289	37.4022380461479	-11.5737454075358	-44.3217798942975	
26750000	-5.04665498054623	-36.1075792733684	26.9663817640191	158.671178382304	-32.6733165389425	39.6894980539764	-11.9685323441787	-34.8240581100394	
27000000	-4.69979597063208	-32.9099957087077	26.8907719755504	162.166936856328	-31.666842660741	40.370186122215	-12.4570740505965	-44.5768119961014	
27250000	-4.85508787696385	-42.2387370146685	26.9200890013022	160.286168804249	-30.5814749493744	29.3208220212176	-14.159911194875	-59.4006690009404	
27500000	-4.86663140632412	-34.9541190948064	26.6129176767724	160.959087822887	-31.8621450889206	34.675024860548	-11.6347775349713	-41.8727245216773	
27750000	-3.6091172629328	-33.9762815828674	26.9438571027823	166.112294320389	-30.9592666555187	44.9680879202531	-10.0383830189365	-35.8979357255147	
28000000	-4.77747708713334	-34.3384918869408	26.8213190524816	162.230082303568	-31.528218123369	33.8411045939063	-11.4637917188161	-35.2644941128763	
28250000	-4.35518188527893	-37.1528204435561	27.1296341034693	162.544225257191	-30.9873861922074	38.6759967059861	-10.343819179045	-44.4454498656687	
28500000	-4.86291689309789	-40.7780367191486	27.2162830085237	159.226294293245	-29.5636226886219	24.5623786532649	-13.7347647481621	-51.5886553878919	
28750000	-4.77684957753041	-37.3919574144015	27.2366633658601	162.004224874617	-32.6143462520055	36.7504537381005	-11.5214564954939	-48.6477422890863	
29000000	-4.75904435094015	-47.5688472870951	27.408395411852	161.595156750334	-30.9592739224282	31.6425671551577	-11.2310433372018	-64.5817399417123	
29250000	-3.48054686759739	-38.3288008759312	26.5387308066976	163.105425059818	-30.1550593830277	36.5291897418444	-9.66725046478976	-33.7972315802436	
29500000	-5.01358421627729	-37.6744121288494	27.0652974018186	162.886973498223	-31.9021743659089	20.7698203010454	-12.6118406198016	-40.2402390633754	
29750000	-5.4151498773707	-37.5380710660631	26.670019977319	159.773144849229	-31.5133751186482	32.8360099804851	-14.3535624053381	-39.9739778017384	
30000000	-4.10289806691593	-32.8493480845116	26.8407565078931	161.781575191577	-30.4494065119756	40.7690966542481	-10.3893352192469	-41.3068337539735	
30250000	-4.98422055652536	-41.2717043967893	26.7995681460006	159.620117162495	-30.3772774608601	25.227997935205	-13.6661142362219	-52.7201185131117	
30500000	-4.85786448918357	-31.7400953682074	26.7373597040144	159.278018225339	-33.3319018143645	31.9711490967232	-12.0950539993703	-26.3867745906888	
30750000	-4.71413795587253	-41.2489009707243	27.2391947103176	161.164280432201	-31.7887466828349	29.9940495718076	-13.0573105409815	-48.7649427818751	
31000000	-5.32308514052938	-34.8019190268456	26.8252309426855	163.371984122591	-34.3365226448238	22.7958919910145	-13.032922244127	-38.9366500923981	
31250000	-4.82633211092483	-34.415673271109	26.7833733428756	163.849689403833	-33.4360448467988	34.2967425697212	-12.2344318362399	-33.2050554319708	
31500000	-4.88570591066934	-35.3967201241739	26.9327733415242	161.612247727737	-30.6987825006635	28.6154886819283	-11.6926850799583	-38.8276923012909	
31750000	-4.73065120450892	-38.6413202105722	26.6767301628518	163.454218156849	-31.6697814733247	34.724074265477	-13.0376695957045	-37.707537730293	
32000000	-4.62866443228825	-42.2864663227482	27.087037840108	163.255460984356	-32.4033632143383	34.5525619336406	-11.3218808167041	-54.1726262614482	
32250000	-6.10056851757907	-35.1822079891472	26.7883422610441	160.631989438396	-32.328593609708	18.5372918713615	-15.9115689069614	-38.836934114894	
32500000	-4.98178932811228	-31.7409131751285	26.4303777241554	160.089453435052	-30.8687544687701	29.8905791223733	-13.9847201135327	-30.2276179012526	
