!Keysight Technologies N9926A: A.10.18
!Date: Saturday, 25 July 2020 11:54:18
!Timezone: 
!Model: N9926A
!Serial: MY57271140
!GPS Latitude: 
!GPS Longitude: 
!GPS TimeStamp: 0001-01-01 00:00:00Z
!GPS Seconds Since Last Read: 0
!CHECKSUM:1274141403
!Correction: S11(ON U)S21(ON U)S12(ON U)S22(ON U)
!S2P File: Measurements:S11,S21,S12,S22:
# Hz S DB R 50
500000	-0.352509974160675	0.893745168903516	21.1489562297485	-113.12169658723	-51.1288992915576	55.1770432592558	-1.66820067143145	152.581939799747	
750000	-0.184108722005295	1.27846972515619	24.2508172941407	-124.068727317239	-59.9109346555163	-121.566672556105	-2.48770261996813	124.200919623744	
1000000	-0.189651454973859	-0.252811839186016	25.5606228139205	-137.530388856318	-53.7665995930729	110.377144264001	-3.56230082998966	105.855719887777	
1250000	-0.185809345299207	-1.02952848795154	26.8756818931235	-144.522767308409	-55.1483182450547	102.00255444146	-3.81229887911362	93.1205202545401	
1500000	-0.394802011700432	-1.83834501533374	27.4848872950865	-148.920796742169	-51.8209733982192	79.7245179557487	-3.63261594849638	78.1206921286407	
1750000	-0.134737510967119	-2.35041489257068	27.4492224826833	-150.455455582146	-50.5635857335277	99.6669021782124	-4.45793886561665	77.2785656010878	
2000000	-0.232376737384436	-3.20488180282016	28.2413162446319	-156.95064389216	-47.4605101760491	122.076375421387	-4.355759553204	67.8842652305211	
2250000	-0.622751501585004	-3.52175610326401	27.5782571870847	-157.958146227062	-45.1770014580432	95.4085135968903	-4.94538370583521	59.9753625748674	
2500000	-0.119991064606164	-7.50414086163053	28.4035241018163	-163.342776204592	-53.734282745164	45.3690407009451	-5.42397370307048	52.9544696511837	
2750000	-0.0185994763324343	-8.21150416112927	28.4929993274885	-164.042479109357	-47.0664392354959	67.0650589434849	-5.5014171596373	49.2967767036679	
3000000	-0.373868880056378	-3.50307132621739	29.0480670474512	-163.605137472863	-41.1292882815795	97.978021804486	-5.58420297237728	45.9449957604422	
3250000	-0.0901954474103826	-8.32585761000292	28.7868539240618	-165.972122981117	-44.1766787081521	114.971179712709	-5.68370934226573	41.7183476496906	
3500000	-0.492741844536337	-8.4642739026614	28.9417196109337	-168.405284497297	-45.2440122932749	117.867776386715	-6.89242360173427	34.9277758019648	
3750000	-0.0235393264461747	-9.3386548065583	28.5957705749678	-166.998993545625	-47.6799362990734	84.1139844563015	-6.19472556591617	23.6892571427264	
4000000	0.205500804130276	-5.57835392015833	28.4883004258129	-170.17342711999	-41.7435516656162	68.3325605139745	-5.68634150091199	23.8574729421588	
4250000	-0.0891091476773088	-10.7580192688651	28.5946133742822	-169.648267055673	-44.7569592832489	90.3016709309232	-6.37787064009388	21.8143288128456	
4500000	-0.281498036244987	-10.7115390569229	29.1593668329561	-175.192675825976	-37.99866762727	84.4871715294863	-5.80608840737174	29.1176382321162	
4750000	-0.139855650420869	-11.1684454559822	29.2121610131697	-173.063602960126	-44.0933977245786	52.077436201993	-5.91718093018616	19.0821852021984	
5000000	-0.0134379382096024	-12.8636708682878	29.0272824627347	-178.373576315892	-41.0685113775403	58.9692792699324	-6.22578095234377	21.1039978977975	
5250000	-0.164483572526908	-10.7511475911313	28.8068426396742	-173.176573047366	-40.0193924903787	92.3548114083208	-5.98654655033298	16.2459630205336	
5500000	-0.218617180772275	-10.5091859553218	28.4496932011998	-177.328142000705	-42.1271883190076	79.7301956537812	-6.47948957084321	15.3398855146764	
5750000	-0.564755377208977	-11.0846556520941	29.0690938311972	-173.030606979737	-42.2649428658637	87.2297359762075	-6.77669728059349	6.64956978215646	
6000000	-0.531781087033045	-14.3085044890453	29.6037630758018	-179.517909519595	-42.0296468307848	81.3195661623231	-6.85109768961456	8.88876224681545	
6250000	-0.863521903720071	-14.7926000459268	28.501285378992	179.740281424821	-39.5140263533004	75.497791396093	-5.43763587881346	12.2208396157647	
6500000	-0.763012620563659	-16.3558862382693	29.386434563875	177.071469860616	-39.8057836736454	73.8338562137986	-6.03613265151925	10.3075636087969	
6750000	-0.277250893573594	-16.0602347521148	29.3468984903865	179.969026558832	-38.35985540011	59.08138097158	-5.67810264922861	4.37621343880404	
7000000	-0.64891987113022	-16.0723759943788	28.7247276891676	178.86579394843	-43.3228470789209	82.6698528073614	-6.90939988128151	4.5956939107002	
7250000	-0.561391612169424	-11.274254782857	28.1062126087179	-178.95386301925	-37.448267930862	84.0314671342783	-5.9022583918932	3.77693706781327	
7500000	-0.237999770503311	-15.344427380841	29.0818681887487	-178.589465290146	-37.4777164112163	69.5347019247669	-6.63837139969182	1.86522436622923	
7750000	-0.59153515283053	-15.2289380938982	28.4386469085255	178.61247696754	-37.4586569323625	64.8500870472748	-6.09751555875352	3.21428253896201	
8000000	-0.889385218439508	-15.1457230299248	27.9680501071661	175.270456824273	-38.3626537727474	83.4689379980717	-7.2509634361345	4.15660373630861	
8250000	-1.05158819780595	-12.6384794677103	28.1135559987459	175.907776367362	-38.2393620836878	77.9034432291393	-7.22296421056953	6.03843062240715	
8500000	-0.825008803626221	-14.6372251332704	28.577670315375	178.894479559117	-38.3718519700046	74.8977104971044	-6.55246749268143	0.21359372466925	
8750000	-1.00862589499447	-18.521248830054	28.6080806680416	174.010485177844	-36.5921965052552	72.705034762501	-7.09603083294155	3.15245913258883	
9000000	-1.48062288122194	-22.3643823630187	28.7725732814523	171.511112275291	-39.3864327781087	68.4126541785279	-7.65100684376973	-6.87777487174272	
9250000	-0.795426991902299	-18.3936457198613	28.5278687854958	175.339055264983	-35.9252688268661	66.4018713755535	-6.38828377101767	-6.30088563784975	
9500000	-1.18801133741506	-16.4762122034807	28.2527448904287	174.212585672063	-35.7364942541982	79.8644328788205	-7.09192225535601	2.51006093191421	
9750000	-1.36822142537784	-16.4872008008773	28.20234425475	174.380469470439	-35.6930046729819	70.6853789147914	-6.61708612277531	-1.64683743814831	
10000000	-0.92220291937878	-21.9397044634645	28.2320515434656	174.568924595858	-37.230989415971	53.9753936932991	-7.57400211886054	-14.0567126686891	
10250000	-0.583862978308502	-19.9620435952334	28.4512960784569	170.853894984127	-34.6675286368427	69.3043845891859	-7.03721459437559	-9.90349376182679	
10500000	-1.41061145352406	-25.6365216214782	28.5288501459397	173.433881202875	-36.9336329054486	67.661835595161	-8.75525551137393	-11.1342710101993	
10750000	-1.23648243728051	-20.7770717090843	28.5143495512792	173.902785377417	-34.7021456672429	59.8026703893032	-7.30877788540949	-7.1764775306249	
11000000	-1.34706190441713	-23.0801989887661	28.5273984907543	171.843902746342	-36.0901324560381	57.7737978256119	-7.18179643579144	-11.4921392290342	
11250000	-1.38205451755893	-18.5274095154618	28.128404900424	173.949041313158	-35.0045599042709	75.0870598119932	-7.6543177008774	-6.75582302641234	
11500000	-1.83755015619927	-20.8112411814171	28.0439257977948	171.794467643545	-38.0294781944477	81.9881829486815	-8.9934902258504	-6.32627696914018	
11750000	-2.08956756343926	-21.503501543309	27.9124435675274	169.018138223087	-35.1717547243265	64.0240253049841	-8.36734289637787	-3.95967228521374	
12000000	-1.64080323616575	-21.7190519073329	28.2212683628983	173.215815804699	-37.3459856160012	61.0698530644327	-7.29521722934488	-11.8666197963478	
12250000	-1.5140764534077	-22.2522994546572	27.9736816007649	172.707054950782	-36.1834906003011	61.370236795601	-7.71219376959146	-9.0511151618863	
12500000	-1.54649144066863	-23.1961922714611	28.0263662579137	171.678023092392	-34.4374972247279	61.5797908445737	-8.09570483874557	-10.6594250343283	
12750000	-1.86527150128422	-24.6196053594453	28.1849371288473	169.464411070879	-35.2650009895428	63.6397275419979	-7.75204334831718	-17.4661931251465	
13000000	-1.9366984243815	-21.4917002951847	28.3889678024695	173.362824320656	-35.8462571894158	66.0583114235805	-7.87186565726826	-17.1029234227364	
13250000	-2.34300373108395	-26.7937960302296	28.4609409131189	170.025312804604	-35.8363946351763	58.6545126454295	-8.62180052466265	-21.3686840425103	
13500000	-1.95404997321688	-24.0491841364716	27.9655511764124	171.396478636743	-33.6311615208347	54.0080755050317	-7.90651993283723	-15.0442028563213	
13750000	-2.05321497436002	-25.6459670681165	28.4942684875093	170.281153378296	-33.2692196514969	52.8320741950857	-7.09327206688437	-17.8310955793216	
14000000	-2.57245454479035	-26.8949604037037	27.9550158403027	160.954931415762	-32.7539056176169	53.0644639915424	-8.88358124949809	-14.9235111474526	
14250000	-1.54671051692891	-23.6764397848375	28.27443836409	170.244629053507	-33.6438227643547	59.4257590773123	-7.69338082013106	-14.5706520132007	
14500000	-1.20364252822542	-29.2029336275743	28.113609935049	169.260422613884	-32.6525492212604	51.2763775191188	-7.80026705309773	-25.9209356922496	
14750000	-2.45927017044006	-25.5431372442722	27.8892228575894	167.400439286046	-35.2318348189764	60.7296757554795	-9.56909136697258	-16.3019545259862	
15000000	-2.61910563091636	-24.3597837827209	27.7910683329314	167.233647198442	-33.6815510500046	51.7302639423924	-9.3827371888092	-19.7220252117444	
15250000	-1.91505882963264	-29.3867364433808	28.2603093505844	167.627142667681	-32.9442327564081	45.9762480453179	-8.12216657892713	-28.0386953441456	
15500000	-2.00297436173995	-27.2947917126773	28.2497933952275	168.778855999605	-33.5070091956469	56.50605972075	-8.31359933534346	-28.1485331088467	
15750000	-2.57124128058313	-29.6086101836719	28.1801333988852	167.975996999806	-35.4957674092184	38.3877000053336	-10.6952012568114	-27.636306475271	
16000000	-3.09313088844903	-32.5975633597581	27.9495396533599	164.342357786098	-33.4487832695076	25.5406805053234	-10.0244044887894	-31.2575809068544	
16250000	-2.03742467890962	-32.8716943767673	28.0327389974275	165.907895936892	-33.8530010062969	48.5446748101997	-9.29851939523586	-28.3654813076192	
16500000	-2.25954034727851	-26.4915667364957	27.885166521074	164.942324030278	-32.1210383998511	53.1538016851329	-9.63445749085862	-23.4854187032844	
16750000	-2.89916320617274	-28.0688079641053	27.8357346300713	164.98672426186	-33.4841067867485	54.2998830542626	-10.4101523523595	-16.0764649424618	
17000000	-2.37002482592181	-33.8136120373289	28.78293612258	164.877195012168	-34.6079439411564	37.6185805303967	-9.92835058829848	-41.8214046569918	
17250000	-2.94665244626448	-25.9804552889	28.0672572655983	166.934691370745	-34.5633327507111	52.730198463871	-9.42840202095092	-19.5986054438764	
17500000	-3.04457657467869	-31.7631707939926	27.996533494589	163.087833258573	-33.7909543695299	47.7957916381265	-9.65996305638036	-29.2944843261022	
17750000	-2.30931317734952	-31.4957103182811	27.9122453625999	168.032564911419	-31.9214335113714	48.5150703973097	-8.77443404180689	-28.1959051227428	
18000000	-2.27102603905715	-32.515651969019	28.0792298054387	168.190543981557	-32.0686036276706	50.4321664884899	-8.393348066647	-32.7941845735665	
18250000	-2.99278364859796	-28.0283692742284	26.8949269116589	164.644849415843	-33.4429111323752	49.9687080579727	-8.99996473633862	-21.7081047303751	
18500000	-3.18258307429151	-32.0178838168007	28.2591735920617	164.815914668709	-33.932156961252	41.4337437797038	-9.62961227637622	-25.7625649563131	
18750000	-3.0287329547834	-26.9571811401074	27.451331199725	164.856270611961	-34.910110034544	45.0834255726552	-9.12963414430779	-25.8311857262747	
19000000	-3.1137152655176	-31.5965512421206	27.8266104114	165.127556445106	-32.7704969324408	41.5172438941954	-11.158749102483	-38.8798405273922	
19250000	-3.57826168128602	-30.3682876928133	27.5363083845298	162.955244923327	-33.5835159620102	39.6076426572949	-10.1904189287543	-26.8161635903231	
19500000	-2.99065229340317	-29.9736663880393	27.3961333529573	166.520921673099	-31.8617651470698	43.2727849241991	-8.90900957753351	-30.2453209244963	
19750000	-2.51108510364541	-29.9348528632547	27.7266811640105	166.077300595259	-31.3848404668334	38.4316846847306	-9.28270504739795	-36.7152751629101	
20000000	-3.09590142866525	-28.6203157330554	27.5936998517945	165.692813829391	-32.468372328765	54.8754776307921	-10.5521540552704	-22.61905553868	
20250000	-3.11038724484163	-36.3901261525504	27.5446202113566	165.392564018653	-32.5422902686629	36.3835125600323	-10.1320324853509	-34.5403560501069	
20500000	-3.7426888330559	-27.9106349883053	27.4011922704541	164.917513573217	-33.1202911335079	55.8586503933388	-9.6103397544164	-26.3807732416066	
20750000	-3.56012335325909	-35.9664454013358	27.5805451842452	159.100962514867	-31.5281864937875	41.9813813368086	-10.1860873642579	-35.2958762182826	
21000000	-2.22656473225382	-29.1683374135279	27.3752444254804	165.302618377517	-32.2960175342745	50.0154319693027	-8.06476214901053	-29.0252587519212	
21250000	-3.62051765993907	-29.6786954902465	27.6271733065214	164.692829027749	-31.9578584906932	50.1508900829199	-9.93942165761403	-26.3246229723252	
21500000	-3.50545348006839	-32.7863904012615	27.4328605100174	162.357308544332	-31.2862893268875	43.0967488344681	-10.609084521678	-27.1383388063333	
21750000	-3.42493085674248	-32.7519453950598	27.629863889916	165.070918853743	-32.3567860050757	41.9710281715651	-10.2643297220998	-35.1945341385543	
22000000	-3.76176204400833	-32.6025508924438	27.7613674591271	165.494545594567	-33.4940594292808	44.3177869433667	-11.4466470422534	-31.2036130119133	
22250000	-3.74590884041358	-31.6901781040335	27.1192895476163	162.82591113036	-32.3885908050772	50.7303887914759	-10.7593151062029	-23.9548726764734	
22500000	-3.56059612700529	-35.467314373185	27.0803838643205	162.768704499605	-30.7886294876722	32.9706382238279	-12.006438228166	-29.3044812240209	
22750000	-2.9848389349378	-35.249709930225	27.5869678694889	165.006157967529	-31.9903812960752	35.0516353899724	-11.031929465481	-42.7088676645591	
23000000	-3.76621748737606	-33.5718989931699	27.2352404734027	162.941312307245	-33.4810692161195	41.2777043905945	-10.3906247020987	-35.9579658406914	
23250000	-4.41868946917815	-30.5247639617691	27.4818569435826	163.221836586376	-35.0865242778394	39.0893414733922	-11.3830696397599	-20.1600713034851	
23500000	-4.54104819088291	-32.3997496777904	27.034152707756	162.184344509255	-31.2740031570926	35.2876548091152	-10.9889185331215	-36.0235236153602	
23750000	-3.74891755688745	-26.9087178494099	27.1153205380774	164.456392921375	-31.8785323762685	48.6183017812427	-9.13063590026734	-25.718351776342	
24000000	-2.4904610009636	-39.6346478749307	28.1629900576391	163.401339469448	-31.1282373110755	45.9351585256413	-9.33919184008073	-39.7707818156143	
24250000	-3.62548738171533	-39.1304865814184	27.1222120166839	162.850929995869	-32.3410544436344	34.8894197634645	-12.2336077829651	-39.3891847795468	
24500000	-4.47202709125875	-32.5424433997315	27.5215601779872	160.729510430953	-32.4789806338882	35.2551800269354	-10.7982700822148	-42.0061091676725	
24750000	-4.48543191222624	-32.2682255575734	27.1149669932955	161.47266784356	-33.1780495503521	37.0083656204134	-11.7883366304065	-36.9774087026152	
25000000	-4.40521550092345	-34.9421466268362	26.9053956494421	164.940642267683	-31.3592353660415	28.739432614065	-11.0094843921242	-41.2490629073465	
25250000	-3.89213278546984	-36.4972866728354	27.4793849714431	164.221800476917	-31.7663750112474	46.6019741226166	-10.3942798167923	-40.2726033373325	
25500000	-4.26932955290151	-33.6640990625845	27.2642644306092	163.784105065197	-32.835390322261	41.3010883836303	-11.2797263206266	-29.1581362122977	
25750000	-4.13937035644404	-39.1666365887722	27.2723871457746	162.900369963848	-30.542304442709	38.0737232166838	-10.5732680072886	-43.8003003347205	
26000000	-4.58827135187376	-36.3493093290907	27.0788253317025	162.685006123447	-32.3942400348622	35.2166095639637	-12.0776625082745	-43.4730825937886	
26250000	-4.53047992742728	-31.7726604947845	27.3883943339742	163.366380578134	-34.1062756948101	41.2056006937692	-11.2028009102601	-36.8989436739111	
26500000	-5.3886374108775	-36.058908908552	26.9329354332855	158.547242674858	-32.3883261216331	30.2855495316802	-12.6888764070827	-41.0998545301717	
26750000	-5.30935945723918	-34.3318759373196	26.8712454804734	158.459813391422	-34.0748476943138	43.8252874690958	-12.5977652640846	-29.8618833468361	
27000000	-5.59915697683407	-33.3542080002805	26.7989446069238	161.593254842803	-33.1052537973667	24.0137880532428	-14.1119162418157	-44.0519840381441	
27250000	-4.96194395298313	-37.189841025922	26.9167216562004	160.701572882605	-32.3212527341424	40.6689789020203	-14.0853178755323	-47.1231111250319	
27500000	-5.1035223983225	-35.8805225483005	26.6117656521606	160.586175062257	-30.9901287992734	28.5410069031932	-11.9322005774029	-45.3767246816914	
27750000	-4.20055482385907	-34.9378115288885	26.8724902387451	165.366977749126	-32.1507309265186	30.7415708174756	-11.5004920304554	-37.7763126969741	
28000000	-5.32957882729528	-34.681807466632	26.7352359727793	161.687746188444	-32.3040790503308	25.0252587995179	-12.252214465362	-34.2106262175003	
28250000	-5.22283175670473	-39.39764693518	27.0310594172917	162.233869980546	-31.0133328629405	25.154445811661	-11.3511497042584	-48.446117685716	
28500000	-5.01224045849378	-38.7028339397573	27.1589509558494	159.557391859316	-30.4478653773675	33.2894548669138	-13.6707242807613	-42.8829526080548	
28750000	-4.7979283241436	-39.2721047095674	27.2398043153332	161.407600440468	-31.3632689618416	36.174095234007	-11.3698373237999	-50.6029124142949	
29000000	-4.4340511500544	-45.7353666410809	27.4095782781626	161.95983778369	-30.7975183069054	41.0399467270614	-11.0726190427086	-59.0418998203011	
29250000	-4.15519257478634	-38.5629193850197	26.4551242273898	162.455272093704	-31.3306797237798	28.1661591537419	-10.5687607212283	-33.2516414825309	
29500000	-4.19977388943803	-39.2674438159777	27.1903924190598	162.894666644468	-29.8942833943335	37.4008246452974	-10.5159321119541	-41.8910814144872	
29750000	-5.951648759144	-33.7647007891258	26.5418744081709	159.282733421307	-33.21622241177	27.8460095377209	-15.7458274786352	-32.2232785942581	
30000000	-5.25715170124351	-34.2203861018056	26.6866370509993	161.200184461657	-31.674538437175	14.4599189295317	-12.4859433954028	-42.6700034281157	
30250000	-5.5368337148178	-37.4973309140072	26.6740162562501	159.8676325164	-32.4927244478362	23.1492940457316	-14.8320103011181	-41.208516398509	
30500000	-4.77494164211841	-33.7634766290104	26.7785759793483	158.933306751526	-30.962303014863	34.4093334655658	-11.7559469395765	-32.6694451625951	
30750000	-4.75413749509887	-40.3443331283066	27.2216927801089	161.044393045995	-31.7564334862197	35.2343890095617	-13.0862493757721	-45.7481626899671	
31000000	-4.96909535660268	-38.6618342228234	26.9178981336682	162.759340924557	-31.5661634453768	34.3518503547211	-11.7514892803009	-44.6996365522091	
31250000	-4.77405055254131	-35.2649373610893	26.7815457020586	163.215128501058	-32.4242335586802	37.8612762060603	-11.9515592610524	-34.9154177238656	
31500000	-5.44330523219321	-33.4068834230541	26.8360519810773	161.620732753709	-32.2023584353645	24.7510895165067	-12.4020161404422	-32.8984375421901	
31750000	-4.96161647853635	-36.3595616298334	26.6585955618679	163.350296694902	-32.9452561541901	39.827257916871	-13.1647178973332	-30.8774773949801	
32000000	-5.34576693169064	-47.6505846814781	26.9449493368426	161.950159936376	-30.7737771386571	19.7256302043583	-12.4173742724718	-66.1913270828971	
32250000	-6.12190902801243	-35.1697650602238	26.7654198810481	160.52079423779	-32.0247305626742	24.0646680349803	-15.7556614259037	-38.6143754208189	
32500000	-5.37671729319763	-29.0229499482669	26.3583652913665	159.815190111706	-33.1309896860328	26.6903262740896	-14.5726839906288	-20.0194578482982	
32750000	-7.34866239972775	-44.0223319423533	26.6842619293623	156.097476074753	-29.9044416553119	6.81112982506775	-19.1567780268884	-53.0370343343378	
