<Qucs Dataset 0.0.19>
<indep frequency 201>
  +1.00000000000000000000e+05
  +1.03724286551264463924e+05
  +1.07587276205688220216e+05
  +1.11594134664288430940e+05
  +1.15750220013590471353e+05
  +1.20061089890615636250e+05
  +1.24532508914713384002e+05
  +1.29170456396176276030e+05
  +1.33981134331945970189e+05
  +1.38970975699102244107e+05
  +1.44146653057224903023e+05
  +1.49515087471132981591e+05
  +1.55083457765931700123e+05
  +1.60859210126744175795e+05
  +1.66850068055964773521e+05
  +1.73064042701348662376e+05
  +1.79509443568749557016e+05
  +1.86194889633830171078e+05
  +1.93129320867604634259e+05
  +2.00322010191225213930e+05
  +2.07782575875999638811e+05
  +2.15520994405220379122e+05
  +2.23547613815005432116e+05
  +2.31873167531990329735e+05
  +2.40508788726375147235e+05
  +2.49466025199520605383e+05
  +2.58756854826000373578e+05
  +2.68393701570759993047e+05
  +2.78389452102800714783e+05
  +2.88757473027604108211e+05
  +2.99511628761342319194e+05
  +3.10666300070774101187e+05
  +3.22236403303620871156e+05
  +3.34237410335135937203e+05
  +3.46685369257542013656e+05
  +3.59596925840002193581e+05
  +3.72989345787821861450e+05
  +3.86880537830647022929e+05
  +4.01289077670533442870e+05
  +4.16234232821910292841e+05
  +4.31735988376655557659e+05
  +4.47815073728736024350e+05
  +4.64492990294150426053e+05
  +4.81792040263241564389e+05
  +4.99735356423828110565e+05
  +5.18346933095034328289e+05
  +5.37651658213184447959e+05
  +5.57675346612668479793e+05
  +5.78444774546281551011e+05
  +5.99987715491200797260e+05
  +6.22332977288478403352e+05
  +6.45510440665717003867e+05
  +6.69551099194438313134e+05
  +6.94487100735580082983e+05
  +7.20351790428541833535e+05
  +7.47179755281264544465e+05
  +7.75006870420975727029e+05
  +8.03870347067439928651e+05
  +8.33808782292875228450e+05
  +8.64862210635070572607e+05
  +8.97072157632721238770e+05
  +9.30481695354574942030e+05
  +9.65135499996642698534e+05
  +1.00107991162449645344e+06
  +1.03836299614053789992e+06
  +1.07703460955910710618e+06
  +1.11714646467538038269e+06
  +1.15875220021721161902e+06
  +1.20190745257238275371e+06
  +1.24666993018718156964e+06
  +1.29309949073580047116e+06
  +1.34125822116374270990e+06
  +1.39121052071227342822e+06
  +1.44302318703493732028e+06
  +1.49676550552130676806e+06
  +1.55250934194740210660e+06
  +1.61032923857667390257e+06
  +1.67030251384006487206e+06
  +1.73250936572844232433e+06
  +1.79703297903566365130e+06
  +1.86395963659567618743e+06
  +1.93337883466240763664e+06
  +2.00538340258673275821e+06
  +2.08006962695055967197e+06
  +2.15753738032401679084e+06
  +2.23789025481792818755e+06
  +2.32123570061016967520e+06
  +2.40768516963114310056e+06
  +2.49735426460050558671e+06
  +2.59036289361445233226e+06
  +2.68683543049028003588e+06
  +2.78690088108263723552e+06
  +2.89069305579386930913e+06
  +2.99835074850913695991e+06
  +3.11001792219559941441e+06
  +3.22584390141384396702e+06
  +3.34598357199898548424e+06
  +3.47059758817846234888e+06
  +3.59985258740350091830e+06
  +3.73392141318151494488e+06
  +3.87298334620741847903e+06
  +4.01722434410293446854e+06
  +4.16683729008448170498e+06
  +4.32202225089216977358e+06
  +4.48298674432480521500e+06
  +4.64994601673866342753e+06
  +4.82312333088111877441e+06
  +5.00275026444402150810e+06
  +5.18906701973605807871e+06
  +5.38232274488818924874e+06
  +5.58277586702170502394e+06
  +5.79069443782443366945e+06
  +6.00635649199714977294e+06
  +6.23005041904960107058e+06
  +6.46207534894326142967e+06
  +6.70274155209652800113e+06
  +6.95237085428727511317e+06
  +7.21129706700752675533e+06
  +7.47986643384581245482e+06
  +7.75843809349408000708e+06
  +8.04738455999825987965e+06
  +8.34709222089480981231e+06
  +8.65796185389923863113e+06
  +8.98040916283760964870e+06
  +9.31486533353769406676e+06
  +9.66177761042303778231e+06
  +1.00216098945810962468e+07
  +1.03948433641051724553e+07
  +1.07819771175395492464e+07
  +1.11835288412884883583e+07
  +1.16000355018813814968e+07
  +1.20320540640198439360e+07
  +1.24801622353670075536e+07
  +1.29449592390747703612e+07
  +1.34270666150822900236e+07
  +1.39271290512571223080e+07
  +1.44458152454903423786e+07
  +1.49838187998986542225e+07
  +1.55418591483291182667e+07
  +1.61206825184067953378e+07
  +1.67210629294118657708e+07
  +1.73438032273204214871e+07
  +1.79897361583932749927e+07
  +1.86597254827482812107e+07
  +1.93546671294051483274e+07
  +2.00754903943475931883e+07
  +2.08231591832046732306e+07
  +2.15986733002131432295e+07
  +2.24030697851845324039e+07
  +2.32374243002645596862e+07
  +2.41028525683395564556e+07
  +2.50005118650133349001e+07
  +2.59316025661493092775e+07
  +2.68973697530477643013e+07
  +2.78991048774044029415e+07
  +2.89381474882767237723e+07
  +3.00158870233676955104e+07
  +3.11337646670217216015e+07
  +3.22932752774179168046e+07
  +3.34959693855376094580e+07
  +3.47434552685788571835e+07
  +3.60374011005911305547e+07
  +3.73795371832056865096e+07
  +3.87716582594446912408e+07
  +4.02156259137034192681e+07
  +4.17133710611143112183e+07
  +4.32668965296224057674e+07
  +4.48782797382246553898e+07
  +4.65496754749542027712e+07
  +4.82833187783251926303e+07
  +5.00815279260905161500e+07
  +5.19467075353096202016e+07
  +5.38813517778718620539e+07
  +5.58880477157746404409e+07
  +5.79694787606174722314e+07
  +6.01284282619372680783e+07
  +6.23677832291833162308e+07
  +6.46905381923095807433e+07
  +6.70997992061463817954e+07
  +6.95987880039063096046e+07
  +7.21908463053788691759e+07
  +7.48794402855741083622e+07
  +7.76681652097917944193e+07
  +8.05607502413139492273e+07
  +8.35610634281489849091e+07
  +8.66731168754971176386e+07
  +8.99010721108530163765e+07
  +9.32492456489200145006e+07
  +9.67221147637783288956e+07
  +1.00324323476024329662e+08
  +1.04060688762888893485e+08
  +1.07936206999638348818e+08
  +1.11956060640870869160e+08
  +1.16125625150644347072e+08
  +1.20450476190701603889e+08
  +1.24936397076405823231e+08
  +1.29589386510356798768e+08
  +1.34415666604028195143e+08
  +1.39421691198154389858e+08
  +1.44614154492992758751e+08
  +1.50000000000000149012e+08
</indep>
<dep dBS11 frequency>
  -2.24083666391168024645e-10
  -3.23114311247630058302e-10
  -4.65919637127545766274e-10
  -6.71859482256709136346e-10
  -9.68854984116824219057e-10
  -1.39717838639753991510e-09
  -2.01492752604171468818e-09
  -2.90591210330359620037e-09
  -4.19103949622280079145e-09
  -6.04476329438028829549e-09
  -8.71877875373735914076e-09
  -1.25762901738484229938e-08
  -1.81414346106107549493e-08
  -2.61706478977401675306e-08
  -3.77557252223224043544e-08
  -5.44726631535735477595e-08
  -7.85966289951604274456e-08
  -1.13412508519286253648e-07
  -1.63663600421617750513e-07
  -2.36199997566977437869e-07
  -3.40915758539559063454e-07
  -4.92103662469116136949e-07
  -7.10414143170442683286e-07
  -1.02568846182991329694e-06
  -1.48105723327764032395e-06
  -2.13887104706001363475e-06
  -3.08928463060404603457e-06
  -4.46268544571454269480e-06
  -6.44769442437671642878e-06
  -9.31724589652182054033e-06
  -1.34663869313041691751e-05
  -1.94670838284015449956e-05
  -2.81477213489596601902e-05
  -4.07084712007812783013e-05
  -5.88887932637203998345e-05
  -8.52107493164570330146e-05
  -1.23332630502631337326e-04
  -1.78563199270098216069e-04
  -2.58609931764868905112e-04
  -3.74668398656612154987e-04
  -5.43009299668247577900e-04
  -7.87291937650701515936e-04
  -1.14193872519808507088e-03
  -1.65706021735605385850e-03
  -2.40564682129927208051e-03
  -3.49407457729645392133e-03
  -5.07745536655117638003e-03
  -7.38206326307956715166e-03
  -1.07380806445186334497e-02
  -1.56273524032223762315e-02
  -2.27528650255926015444e-02
  -3.31394386926366218971e-02
  -4.82787363310987899245e-02
  -7.03360282784200735451e-02
  -1.02440472752393041400e-01
  -1.49082871657541776722e-01
  -2.16640071458031546747e-01
  -3.14023759181196626677e-01
  -4.53397291053906248415e-01
  -6.50797599377372693041e-01
  -9.26333185216321464139e-01
  -1.30345207973801935353e+00
  -1.80674716117453204589e+00
  -2.45815089286735588558e+00
  -3.27228153458124104702e+00
  -4.25268722484964367681e+00
  -5.39081860293483483559e+00
  -6.66826956991717700873e+00
  -8.06107944648320184911e+00
  -9.54413298704765011848e+00
  -1.10942650590357239082e+01
  -1.26917318307872157845e+01
  -1.43204198796035129249e+01
  -1.59673508425082530948e+01
  -1.76219244329563267115e+01
  -1.92751602298476214514e+01
  -2.09190582394918003217e+01
  -2.25461183469693793313e+01
  -2.41490232420458248441e+01
  -2.57204781644315438882e+01
  -2.72531992431297283019e+01
  -2.87400414368463543724e+01
  -3.01742524216267824499e+01
  -3.15498286741274434064e+01
  -3.28619358113578243774e+01
  -3.41073410430764596413e+01
  -3.52847972555082023405e+01
  -3.63953213801790127491e+01
  -3.74423268869518324209e+01
  -3.84315990735923023180e+01
  -3.93711352781101737719e+01
  -4.02709014920343264521e+01
  -4.11425757148189177315e+01
  -4.19993556083135217705e+01
  -4.28559081651252853362e+01
  -4.37285412288930075420e+01
  -4.46356933124808676894e+01
  -4.55988873087079298330e+01
  -4.66444080089852661786e+01
  -4.78062156296546376666e+01
  -4.91311839355053194822e+01
  -5.06891862568481457174e+01
  -5.25946067918069033453e+01
  -5.50595503140545048382e+01
  -5.85595922861032249784e+01
  -6.46282562340199149276e+01
  -9.63102936272654801542e+01
  -6.40536602031454691542e+01
  -5.80691379829131335555e+01
  -5.45109516930725419570e+01
  -5.19571782850120555963e+01
  -4.99564714756932346518e+01
  -4.83067007872276548142e+01
  -4.68997158753861853597e+01
  -4.56708263248000179146e+01
  -4.45782330660463728123e+01
  -4.35933467962664522588e+01
  -4.26957367560886780211e+01
  -4.18702832917344238695e+01
  -4.11054724323149827114e+01
  -4.03923231516410652375e+01
  -3.97236845464085703838e+01
  -3.90937590922020987705e+01
  -3.84977692571145837519e+01
  -3.79317178632970382068e+01
  -3.73922113423429181012e+01
  -3.68763260676907265179e+01
  -3.63815046597267652828e+01
  -3.59054733599997035753e+01
  -3.54461742667354471337e+01
  -3.50017079935572112959e+01
  -3.45702835010064433163e+01
  -3.41501726674808097073e+01
  -3.37396677474942379149e+01
  -3.33370403011451656994e+01
  -3.29405005341206944536e+01
  -3.25481563129189623851e+01
  -3.21579714583724154409e+01
  -3.17677233116486554820e+01
  -3.13749600482216735031e+01
  -3.09769588206415811271e+01
  -3.05706865652934247635e+01
  -3.01527662182267945923e+01
  -2.97194521235678443816e+01
  -2.92666195045798751551e+01
  -2.87897738463456285274e+01
  -2.82840866625946887325e+01
  -2.77444640496841827826e+01
  -2.71656532791711597952e+01
  -2.65423901000156732266e+01
  -2.58695852615134782582e+01
  -2.51425432637176839989e+01
  -2.43572002717254996185e+01
  -2.35103628349707918233e+01
  -2.25999262189102410048e+01
  -2.16250523427233574125e+01
  -2.05862933527334810435e+01
  -1.94856573795668062132e+01
  -1.83266263883687550162e+01
  -1.71141497215295466106e+01
  -1.58546482015862917336e+01
  -1.45560699312912582570e+01
  -1.32280374957838944283e+01
  -1.18821130942609709535e+01
  -1.05321760904533707759e+01
  -9.19484579152508274547e+00
  -7.88978107963848529494e+00
  -6.63955555546111764187e+00
  -5.46870020592746186594e+00
  -4.40156229511024488232e+00
  -3.45901712250042514540e+00
  -2.65478397864331405742e+00
  -1.99272660232950227233e+00
  -1.46640736094754275953e+00
  -1.06113595883371081285e+00
  -7.57532464104134661831e-01
  -5.35144832433340322808e-01
  -3.75085160755396329613e-01
  -2.61403040227412064578e-01
  -1.81442244345700359753e-01
  -1.25590691110817581633e-01
  -8.67694462229490898197e-02
  -5.98761978213054810172e-02
  -4.12880530642183787848e-02
  -2.84591363689991362629e-02
  -1.96131309501191598843e-02
  -1.35166696595469572328e-02
  -9.31617343487680521497e-03
  -6.42217822612154050355e-03
  -4.42817493460336778638e-03
  -3.05406047696760250126e-03
  -2.10692068685797194785e-03
  -1.45391740274841956698e-03
  -1.00358186068444854219e-03
  -6.92924598093706432464e-04
  -4.78560122368090377302e-04
  -3.30598380934710514567e-04
  -2.28441162947468198643e-04
  -1.57889333995242791154e-04
  -1.09151868216922698428e-04
  -7.54752531053956424775e-05
</dep>
<dep dBS21 frequency>
  -1.02873756297910276203e+02
  -1.01284300570149042642e+02
  -9.96947380701496115307e+01
  -9.81050607309425117819e+01
  -9.65152598789089921638e+01
  -9.49253261886155996763e+01
  -9.33352496343608919460e+01
  -9.17450194382072794497e+01
  -9.01546240142580757038e+01
  -8.85640509089261485087e+01
  -8.69732867369265250090e+01
  -8.53823171127120588153e+01
  -8.37911265770572413203e+01
  -8.21996985184828190540e+01
  -8.06080150892020128595e+01
  -7.90160571152592439148e+01
  -7.74238040005246688224e+01
  -7.58312336242051969748e+01
  -7.42383222315339423858e+01
  -7.26450443173113029616e+01
  -7.10513725019916648762e+01
  -6.94572774000479853385e+01
  -6.78627274804061784153e+01
  -6.62676889188339401926e+01
  -6.46721254423050169180e+01
  -6.30759981655616002172e+01
  -6.14792654203888702114e+01
  -5.98818825785368957781e+01
  -5.82838018698305475596e+01
  -5.66849721978786718068e+01
  -5.50853389570433762401e+01
  -5.34848438561282861770e+01
  -5.18834247568303794651e+01
  -5.02810155387288943984e+01
  -4.86775460079667254831e+01
  -4.70729418745630212584e+01
  -4.54671248345708534089e+01
  -4.38600128096509678244e+01
  -4.22515204204061518567e+01
  -4.06415598044139869671e+01
  -3.90300419403059208889e+01
  -3.74168787127732187514e+01
  -3.58019860607307478517e+01
  -3.41852887076543083822e+01
  -3.25667272020643991937e+01
  -3.09462683301782561784e+01
  -2.93239204491339862102e+01
  -2.76997559947219471610e+01
  -2.60739444345361519595e+01
  -2.44468003883705655710e+01
  -2.28188536736389764314e+01
  -2.11909508141323001951e+01
  -1.95644011773150765521e+01
  -1.79411852535642744044e+01
  -1.63242469285707976212e+01
  -1.47178938191086050580e+01
  -1.31283249761669917888e+01
  -1.15642838679687791625e+01
  -1.00377804762886206902e+01
  -8.56471978692466962002e+00
  -7.16510796282693984693e+00
  -5.86233041579832825363e+00
  -4.68096955495652800039e+00
  -3.64301473118752827673e+00
  -2.76322694724078177231e+00
  -2.04540530752423688199e+00
  -1.48138649637789554525e+00
  -1.05331751745522206321e+00
  -7.37995542378453550647e-01
  -5.11311785108994998339e-01
  -3.51406392270219358753e-01
  -2.40195889965942710464e-01
  -1.63643517973683788602e-01
  -1.11327825819630188420e-01
  -7.57484561682393864324e-02
  -5.16234355180587231593e-02
  -3.52891950623423072964e-02
  -2.42316784405730879792e-02
  -1.67385813511227027339e-02
  -1.16498103426914308145e-02
  -8.18226302117731896235e-03
  -5.80858788421764575538e-03
  -4.17414719541416706639e-03
  -3.04055919571699509799e-03
  -2.24751759938021569013e-03
  -1.68707565334367116765e-03
  -1.28637888582971114670e-03
  -9.96097791538538531245e-04
  -7.82691750836847629710e-04
  -6.23240354013394285554e-04
  -5.01990944372493084688e-04
  -4.08051110856850758179e-04
  -3.33843889773239687994e-04
  -2.74070602122845896620e-04
  -2.25011515807234277302e-04
  -1.84051512589171185593e-04
  -1.49355922232253694260e-04
  -1.19646930865847727580e-04
  -9.40477073015602056541e-05
  -7.19724599891912494420e-05
  -5.30479456710866473473e-05
  -3.70567679903923015948e-05
  -2.38959789439355486864e-05
  -1.35465890844469520019e-05
  -6.05097536988307427839e-06
  -1.49609359786801916476e-06
  -1.01567404695615000241e-09
  -1.70772673440457127553e-06
  -6.77440024474050280867e-06
  -1.53705677826717226171e-05
  -2.76737406485176115774e-05
  -4.38671436768078561131e-05
  -6.41382992363449463968e-05
  -8.86782589074900588332e-05
  -1.17681328607773872438e-04
  -1.51345172234887398845e-04
  -1.89871213124150636873e-04
  -2.33465283060070095175e-04
  -2.82338497330246246050e-04
  -3.36708363045309542680e-04
  -3.96800157609636708865e-04
  -4.62848647366636233285e-04
  -5.35100253625751635933e-04
  -6.13815818045602805408e-04
  -6.99274172856725623887e-04
  -7.91776787322911079943e-04
  -8.91653844545637805884e-04
  -9.99272205945173725913e-04
  -1.11504585186980131710e-03
  -1.23944955426803153468e-03
  -1.37303675150441165630e-03
  -1.51646287311187110206e-03
  -1.67051572323294490741e-03
  -1.83615500614862513402e-03
  -2.01456370581366665806e-03
  -2.20721487323270910974e-03
  -2.41595851330805204762e-03
  -2.64313481683718654036e-03
  -2.89172212742236887928e-03
  -3.16553101820231342842e-03
  -3.46946004706022567352e-03
  -3.80983469595307794320e-03
  -4.19485946278393400516e-03
  -4.63522520668491720686e-03
  -5.14493132354276391793e-03
  -5.74240759519559565427e-03
  -6.45205718570174106830e-03
  -7.30639546181119890755e-03
  -8.34903666628585526543e-03
  -9.63889294569746091224e-03
  -1.12561136465984795024e-02
  -1.33105297805392146226e-02
  -1.59537111805464794367e-02
  -1.93962368499748828710e-02
  -2.39324832736349871198e-02
  -2.99762309763872310253e-02
  -3.81117745906580929205e-02
  -4.91671017996026041286e-02
  -6.43181599763539418868e-02
  -8.52362196405004185484e-02
  -1.14293526973058390261e-01
  -1.54844774323088629764e-01
  -2.11600969640534875005e-01
  -2.91103119531283649479e-01
  -4.02277099332843335322e-01
  -5.56995787523709817712e-01
  -7.70478910824747176278e-01
  -1.06123215211938615177e+00
  -1.45012287435444697792e+00
  -1.95824753521901184783e+00
  -2.60363380830471990990e+00
  -3.39753446122991453748e+00
  -4.34169804876790710324e+00
  -5.42788935092161750617e+00
  -6.63990309105113940547e+00
  -7.95709261834550929393e+00
  -9.35795495654008746556e+00
  -1.08227371656019570878e+01
  -1.23347827298649583838e+01
  -1.38808642970758100432e+01
  -1.54509126284303039967e+01
  -1.70374873457405016097e+01
  -1.86352046700205811192e+01
  -2.02402267421870618591e+01
  -2.18498477437662366185e+01
  -2.34621767080901193481e+01
  -2.50759026950927861321e+01
  -2.66901247170746813708e+01
  -2.83042302685002802320e+01
  -2.99178093192894465346e+01
  -3.15305937260484334672e+01
  -3.31424146578670786312e+01
  -3.47531727024991354824e+01
  -3.63628168640200613027e+01
  -3.79713297846848121253e+01
  -3.95787173234853213444e+01
  -4.11850011877797257398e+01
  -4.27902137090945728914e+01
  -4.43943941293359571887e+01
  -4.59975859549631849177e+01
  -4.75998350695932828103e+01
</dep>
<dep S[1,1] frequency>
  +9.56570543855203569983e-01-j2.91500934092779273588e-01
  +9.53289716383520890908e-01-j3.02057472284707140275e-01
  +9.49762220993454642226e-01-j3.12972400486525914598e-01
  +9.45969699727286728042e-01-j3.24255033951927618130e-01
  +9.41892458507321728156e-01-j3.35914567091018245737e-01
  +9.37509374810406193035e-01-j3.47960014686873542189e-01
  +9.32797799790138437714e-01-j3.60400144620840467979e-01
  +9.27733454660996215146e-01-j3.73243401058427848316e-01
  +9.22290321183239392155e-01-j3.86497816923581871684e-01
  +9.16440526120444465263e-01-j4.00170914350637008106e-01
  +9.10154219584656476449e-01-j4.14269591648568857867e-01
  +9.03399447239460973158e-01-j4.28799995139503786756e-01
  +8.96142016401323515673e-01-j4.43767374040668238777e-01
  +8.88345356167204336373e-01-j4.59175916343778411921e-01
  +8.79970371805295137335e-01-j4.75028563405689996380e-01
  +8.70975293779893799950e-01-j4.91326800696067933494e-01
  +8.61315521945908879609e-01-j5.08070421848688225097e-01
  +8.50943465649186991939e-01-j5.25257262829136095661e-01
  +8.39808380712813162816e-01-j5.42882902659115540445e-01
  +8.27856204585175059485e-01-j5.60940326721809823241e-01
  +8.15029391282898973969e-01-j5.79419548208615187157e-01
  +8.01266748192786093519e-01-j5.98307182749387433951e-01
  +7.86503277315926729862e-01-j6.17585970689440433290e-01
  +7.70670024161551614483e-01-j6.37234240829355425006e-01
  +7.53693938248690686876e-01-j6.57225308719320611139e-01
  +7.35497750075566725236e-01-j6.77526801787679544553e-01
  +7.15999870500604540524e-01-j6.98099902671026617540e-01
  +6.95114319782741407749e-01-j7.18898501084962893160e-01
  +6.72750695099091688967e-01-j7.39868243411139103749e-01
  +6.48814187253635710206e-01-j7.60945467852693457900e-01
