<Qucs Dataset 0.0.19>
<indep frequency 201>
  +1.00000000000000000000e+06
  +1.02684560820148943458e+06
  +1.05441190308268694207e+06
  +1.08271823191583156586e+06
  +1.11178446136245341040e+06
  +1.14163099141669389792e+06
  +1.17227876972294435836e+06
  +1.20374930627785087563e+06
  +1.23606468852700083517e+06
  +1.26924759686689288355e+06
  +1.30332132056306349114e+06
  +1.33830977409554715268e+06
  +1.37423751394314016216e+06
  +1.41112975581824663095e+06
  +1.44901239236440695822e+06
  +1.48791201132892491296e+06
  +1.52785591422335128300e+06
  +1.56887213548491988331e+06
  +1.61098946215238212608e+06
  +1.65423745407005329616e+06
  +1.69864646463424735703e+06
  +1.74424766209666361101e+06
  +1.79107305143967457116e+06
  +1.83915549683887069114e+06
  +1.88852874472862249240e+06
  +1.93922744748685788363e+06
  +1.99128718775566457771e+06
  +2.04474450341479922645e+06
  +2.09963691322562191635e+06
  +2.15600294316346198320e+06
  +2.21388215345688629895e+06
  +2.27331516635285969824e+06
  +2.33434369462727243081e+06
  +2.39701057086085341871e+06
  +2.46135977750101266429e+06
  +2.52743647773071052507e+06
  +2.59528704716602154076e+06
  +2.66495910640464117751e+06
  +2.73650155444817151874e+06
  +2.80996460302165430039e+06
  +2.88539981181442784145e+06
  +2.96286012466704985127e+06
  +3.04239990672967676073e+06
  +3.12407498261799011379e+06
  +3.20794267559342738241e+06
  +3.29406184779524710029e+06
  +3.38249294155263295397e+06
  +3.47329802180585870519e+06
  +3.56654081966626644135e+06
  +3.66228677714564651251e+06
  +3.76060309308639401570e+06
  +3.86155877032470097765e+06
  +3.96522466411986341700e+06
  +4.07167353188370820135e+06
  +4.18098008424503309652e+06
  +4.29322103748490568250e+06
  +4.40847516737961769104e+06
  +4.52682336448908597231e+06
  +4.64834869092950969934e+06
  +4.77313643867010995746e+06
  +4.90127418939490057528e+06
  +5.03285187597146816552e+06
  +5.16796184556993003935e+06
  +5.30669892447634693235e+06
  +5.44916048464610427618e+06
  +5.59544651204395294189e+06
  +5.74565967681867536157e+06
  +5.89990540536164678633e+06
  +6.05829195429983455688e+06
  +6.22093048647520411760e+06
  +6.38793514896381832659e+06
  +6.55942315318942535669e+06
  +6.73551485718772746623e+06
  +6.91633385007910151035e+06
  +7.10200703880902286619e+06
  +7.29266473721711058170e+06
  +7.48844075749725941569e+06
  +7.68947250411309674382e+06
  +7.89590107023464329541e+06
  +8.10787133676388394088e+06
  +8.32553207401873543859e+06
  +8.54903604614677652717e+06
  +8.77854011834204383194e+06
  +9.01420536694011092186e+06
  +9.25619719246874563396e+06
  +9.50468543573348782957e+06
  +9.75984449701959453523e+06
  +1.00218534584940467030e+07
  +1.02908962098935190588e+07
  +1.05671615775865148753e+07
  +1.08508434571002367884e+07
  +1.11421409492052458227e+07
  +1.14412584996533803642e+07
  +1.17484060426670387387e+07
  +1.20637991482804901898e+07
  +1.23876591736366897821e+07
  +1.27202134183457233012e+07
  +1.30616952840139623731e+07
  +1.34123444380558449775e+07
  +1.37724069819033201784e+07
  +1.41421356237309537828e+07
  +1.45217898558179624379e+07
  +1.49116361366716176271e+07
  +1.53119480780398752540e+07
  +1.57230066369444839656e+07
  +1.61451003128693178296e+07
  +1.65785253502423521131e+07
  +1.70235859463534206152e+07
  +1.74805944648536071181e+07
  +1.79498716549861878157e+07
  +1.84317468767029680312e+07
  +1.89265583318239636719e+07
  +1.94346533014027476311e+07
  +1.99563883894639872015e+07
  +2.04921297732842937112e+07
  +2.10422534603919610381e+07
  +2.16071455524660833180e+07
  +2.21872025163201466203e+07
  +2.27828314621603786945e+07
  +2.33944504293141067028e+07
  +2.40224886796286366880e+07
  +2.46673869987466670573e+07
  +2.53295980054695233703e+07
  +2.60095864694255888462e+07
  +2.67078296372665539384e+07
  +2.74248175676207430661e+07
  +2.81610534750384129584e+07
  +2.89170540831704922020e+07
  +2.96933499874285683036e+07
  +3.04904860273807793856e+07
  +3.13090216691448315978e+07
  +3.21495313980466388166e+07
  +3.30126051218200884759e+07
  +3.38988485846309512854e+07
  +3.48088837922155782580e+07
  +3.57433494484325572848e+07
  +3.67029014035341069102e+07
  +3.76882131144712790847e+07
  +3.86999761175566166639e+07
  +3.97389005138155445457e+07
  +4.08057154673674032092e+07
  +4.19011697171858176589e+07
  +4.30260321025975048542e+07
  +4.41810921028885468841e+07
  +4.53671603913966193795e+07
  +4.65850694044781848788e+07
  +4.78356739257500022650e+07
  +4.91198516860148981214e+07
  +5.04385039792929068208e+07
  +5.17925562953902706504e+07
  +5.31829589694499075413e+07
  +5.46106878489396795630e+07
  +5.60767449785461276770e+07
  +5.75821593034550473094e+07
  +5.91279873915113359690e+07
  +6.07153141747664362192e+07
  +6.23452537109325826168e+07
  +6.40189499652787074447e+07
  +6.57375776135173738003e+07
  +6.75023428662448525429e+07
  +6.93144843155146837234e+07
  +7.11752738041372597218e+07
  +7.30860173183169066906e+07
  +7.50480559042516797781e+07
  +7.70627666093407422304e+07
  +7.91315634486579000950e+07
  +8.12558983973719030619e+07
  +8.34372624098077565432e+07
  +8.56771864658662825823e+07
  +8.79772426455349475145e+07
  +9.03390452322442978621e+07
  +9.27642518458458185196e+07
  +9.52545646060036569834e+07
  +9.78117313268199414015e+07
  +1.00437546743529066443e+08
  +1.03133853772124677896e+08
  +1.05902544802800804377e+08
  +1.08745563028117537498e+08
  +1.11664903806820720434e+08
  +1.14662616064275696874e+08
  +1.17740803730495005846e+08
  +1.20901627216772302985e+08
  +1.24147304931956350803e+08
  +1.27480114839430451393e+08
  +1.30902396055890768766e+08
  +1.34416550493043333292e+08
  +1.38025044543375372887e+08
  +1.41730410811179935932e+08
  +1.45535249890053093433e+08
  +1.49442232188107222319e+08
  +1.53454099802185267210e+08
  +1.57573668442386925220e+08
  +1.61803829408262580633e+08
  +1.66147551618057519197e+08
  +1.70607883692432582378e+08
  +1.75187956094124972820e+08
  +1.79890983325047552586e+08
  +1.84720266182372540236e+08
  +1.89679194075179278851e+08
  +1.94771247403295904398e+08
  +2.00000000000000119209e+08
</indep>
<dep dBS11 frequency>
  -5.44979795390436265734e+01
  -5.42680934928792311212e+01
  -5.40382191617456868471e+01
  -5.38083571730319860649e+01
  -5.35785081871401374087e+01
  -5.33486728991552112689e+01
  -5.31188520405925501677e+01
  -5.28890463812244036035e+01
  -5.26592567309880692505e+01
  -5.24294839419789511226e+01
  -5.21997289105298989398e+01
  -5.19699925793801682516e+01
  -5.17402759399352518699e+01
  -5.15105800346201831985e+01
  -5.12809059593275833322e+01
  -5.10512548659623277558e+01
  -5.08216279650835502935e+01
  -5.05920265286447374820e+01
  -5.03624518928323965383e+01
  -5.01329054610027569083e+01
  -4.99033887067150629946e+01
  -4.96739031768608825246e+01
  -4.94444504948848617687e+01
  -4.92150323640951796733e+01
  -4.89856505710570502288e+01
  -4.87563069890644982252e+01
  -4.85270035816808302798e+01
  -4.82977424063396725273e+01
  -4.80685256179936857279e+01
  -4.78393554727975356400e+01
  -4.76102343318081437928e+01
  -4.73811646646817763440e+01
  -4.71521490533454183947e+01
  -4.69231901956155468270e+01
  -4.66942909087312756355e+01
  -4.64654541327666805728e+01
  -4.62366829338789457893e+01
  -4.60079805073448824260e+01
  -4.57793501803280094009e+01
  -4.55507954143141731151e+01
  -4.53223198071413619914e+01
  -4.50939270945399002244e+01
  -4.48656211510888240923e+01
  -4.46374059904793156761e+01
  -4.44092857649622629879e+01
  -4.41812647638409643491e+01
  -4.39533474108496662325e+01
  -4.37255382602403415149e+01
  -4.34978419913730078861e+01
  -4.32702634015823051072e+01
  -4.30428073970611677623e+01
  -4.28154789814690062144e+01
  -4.25882832419360113363e+01
  -4.23612253320914931010e+01
  -4.21343104516998963049e+01
  -4.19075438224309877455e+01
  -4.16809306592384842816e+01
  -4.14544761367469476454e+01
  -4.12281853499808192964e+01
  -4.10020632686820434287e+01
  -4.07761146843687143360e+01
  -4.05503441491897191895e+01
  -4.03247559055067767986e+01
  -4.00993538050113187410e+01
  -3.98741412160361790029e+01
  -3.96491209175617953520e+01
  -3.94242949782349612065e+01
  -3.91996646185199892898e+01
  -3.89752300538782137096e+01
  -3.87509903166216531645e+01
  -3.85269430538152306553e+01
  -3.83030842982962553833e+01
  -3.80794082095405457267e+01
  -3.78559067807383868853e+01
  -3.76325695080321906971e+01
  -3.74093830174202679473e+01
  -3.71863306443468601969e+01
  -3.69633919604634684219e+01
  -3.67405422414764899486e+01
  -3.65177518693812146466e+01
  -3.62949856617246879864e+01
  -3.60722021198519584573e+01
  -3.58493525873698359874e+01
  -3.56263803093284820989e+01
  -3.54032193818812714881e+01
  -3.51797935814700224455e+01
  -3.49560150619153162665e+01
  -3.47317829072184096617e+01
  -3.45069815274481470624e+01
  -3.42814788848662388432e+01
  -3.40551245375154962858e+01
  -3.38277474879730561952e+01
  -3.35991538259805793132e+01
  -3.33691241553707200751e+01
  -3.31374107983100003594e+01
  -3.29037347736004619492e+01
  -3.26677825509040147267e+01
  -3.24292025895710551708e+01
  -3.21876016796191848357e+01
  -3.19425411136820684987e+01
  -3.16935327327955462806e+01
  -3.14400349060755601727e+01
  -3.11814485249403148259e+01
  -3.09171131167172354992e+01
  -3.06463032102208217111e+01
  -3.03682251168701498045e+01
  -3.00820143243924995602e+01
  -2.97867337348660576879e+01
  -2.94813730128261362040e+01
  -2.91648493396571097946e+01
  -2.88360098939017035491e+01
  -2.84936363890012316347e+01
  -2.81364519951956673083e+01
  -2.77631309454079655552e+01
  -2.73723110707093368887e+01
  -2.69626094253071713069e+01
  -2.65326410419985663225e+01
  -2.60810407081381079308e+01
  -2.56064874753778148886e+01
  -2.51077314251275254264e+01
  -2.45836220228390160969e+01
  -2.40331372297324747933e+01
  -2.34554124254530371729e+01
  -2.28497681545718158702e+01
  -2.22157357655756904080e+01
  -2.15530801774513847135e+01
  -2.08618192900424830327e+01
  -2.01422399414515851390e+01
  -1.93949107877527460175e+01
  -1.86206930051285333150e+01
  -1.78207502518747311626e+01
  -1.69965598308235712466e+01
  -1.61499274081830925809e+01
  -1.52830079074068709843e+01
  -1.43983352184248083461e+01
  -1.34988630145211825351e+01
  -1.25880180591943187096e+01
  -1.16697656385630317288e+01
  -1.07486838148329724163e+01
  -9.83003868149897286344e+00
  -8.91984647214154158235e+00
  -8.02490048035593694919e+00
  -7.15273257812268692390e+00
  -6.31147364253222686870e+00
  -5.50957933318614667684e+00
  -4.75540330056783311363e+00
  -4.05663280788091462625e+00
  -3.41964853809520974437e+00
  -2.84891661089610392921e+00
  -2.34654356784358775201e+00
  -1.91210463897066729189e+00
  -1.54279124103506459775e+00
  -1.23383941035249411478e+00
  -9.79133099894245129136e-01
  -7.71851077048946732084e-01
  -6.05045285687844103251e-01
  -4.72083554617272027620e-01
  -3.66937123633399087108e-01
  -2.84328088496780762018e-01
  -2.19769182993601347453e-01
  -1.69531614581523604190e-01
  -1.30571816274893059973e-01
  -1.00440059611983434351e-01
  -7.71860517199394746690e-02
  -5.92703351812594383952e-02
  -4.54858337430949846714e-02
  -3.48910122011234502537e-02
  -2.67544457882007112592e-02
  -2.05097368061437218545e-02
  -1.57193687444911016360e-02
  -1.20460351087143657106e-02
  -9.23008084821759500205e-03
  -7.07186253571292795100e-03
  -5.41802002047329055168e-03
  -4.15083118547213830718e-03
  -3.17998071136286683536e-03
  -2.43620937777019441056e-03
  -1.86642262467516680501e-03
  -1.42992807317643801437e-03
  -1.09554443706928413861e-03
  -8.39381805230358024258e-04
  -6.43138459671455434662e-04
  -4.92794666893125316021e-04
  -3.77611294238629419725e-04
  -2.89362336675106615515e-04
  -2.21746844183242231962e-04
  -1.69938387268063956009e-04
  -1.30239934198798354209e-04
  -9.98194985977240761745e-05
  -7.65076654560248835268e-05
  -5.86425162056170820634e-05
  -4.49508583591099673523e-05
  -3.44572602993844560545e-05
  -2.64143808760834475401e-05
  -2.02496075692119707236e-05
  -1.55241844143454098249e-05
  -1.19019052665819672932e-05
  -9.12513285684908431186e-06
  -6.99642859422041979504e-06
  -5.36447971584369082246e-06
  -4.11331805526577440265e-06
</dep>
<dep dBS21 frequency>
  -1.54165476023997074367e-05
  -1.62545808386129286382e-05
  -1.71381228675209340681e-05
  -1.80696398852038235690e-05
  -1.90517311899016771732e-05
  -2.00871362678814553910e-05
  -2.11787423147501850564e-05
  -2.23295920953048084739e-05
  -2.35428922696989692087e-05
  -2.48220221145731703238e-05
  -2.61705427028019365818e-05
  -2.75922065818864131119e-05
  -2.90909679505198679665e-05
  -3.06709933188715219796e-05
  -3.23366727948397341850e-05
  -3.40926318979255710056e-05
  -3.59437439653514191401e-05
  -3.78951432589283565143e-05
  -3.99522386883107609792e-05
  -4.21207282422695440194e-05
  -4.44066141453639193757e-05
  -4.68162188229685752240e-05
  -4.93562016163408842986e-05
  -5.20335763437088704504e-05
  -5.48557297628623786187e-05
  -5.78304409753037447126e-05
  -6.09659016866538871473e-05
  -6.42707376150710254538e-05
  -6.77540307955562385363e-05
  -7.14253431104867062343e-05
  -7.52947408458537947515e-05
  -7.93728205582356152476e-05
  -8.36707360534401931376e-05
  -8.82002267705436434914e-05
  -9.29736474465296089441e-05
  -9.80039992318365051332e-05
  -1.03304962204846573800e-04
  -1.08890929528453363337e-04
  -1.14777043072364619974e-04
  -1.20979230781431245766e-04
  -1.27514245720248523171e-04
  -1.34399706971167505866e-04
  -1.41654142318408152960e-04
  -1.49297033018406074189e-04
  -1.57348860522587132103e-04
  -1.65831155338472030405e-04
  -1.74766548162483205571e-04
  -1.84178823388926848599e-04
  -1.94092974982964735792e-04
  -2.04535265036207166128e-04
  -2.15533285025124553280e-04
  -2.27116019966107975667e-04
  -2.39313915651412768663e-04
  -2.52158949178723731412e-04
  -2.65684703004018089607e-04
  -2.79926442778329303933e-04
  -2.94921199339512525063e-04
  -3.10707855101452717992e-04
  -3.27327235470451817501e-04
  -3.44822205604249987839e-04
  -3.63237773218389901550e-04
  -3.82621198119698037107e-04
  -4.03022109339699029229e-04
  -4.24492630778572225050e-04
  -4.47087516643218966725e-04
  -4.70864298053429468013e-04
  -4.95883442422369595699e-04
  -5.22208527716075073845e-04
  -5.49906433888966059663e-04
  -5.79047554372498496367e-04
  -6.09706030904533929915e-04
  -6.41960015815185220701e-04
  -6.75891966440781430739e-04
  -7.11588977400945529514e-04
  -7.49143157485771026341e-04
  -7.88652059109584777780e-04
  -8.30219170037742120426e-04
  -8.73954478574207093214e-04
  -9.19975125812663198366e-04
  -9.68406161025049520320e-04
  -1.01938141918287306781e-03
  -1.07304454339919108988e-03
  -1.12955017930518072759e-03
  -1.18906537342763690343e-03
  -1.25177121390418520999e-03
  -1.31786475914503630087e-03
  -1.38756130878319957657e-03
  -1.46109708190794045958e-03
  -1.53873238012419374411e-03
  -1.62075532838232999090e-03
  -1.70748630494922865909e-03
  -1.79928319425193402811e-03
  -1.89654762371733380359e-03
  -1.99973237868851169696e-03
  -2.10935023034291473445e-03
  -2.22598446148201522393e-03
  -2.35030143628442997686e-03
  -2.48306563658187533228e-03
  -2.62515768123178011226e-03
  -2.77759596327099541127e-03
  -2.94156268616456570072e-03
  -3.11843526558454840758e-03
  -3.30982429528047742556e-03
  -3.51761956963081564784e-03
  -3.74404602771263297564e-03
  -3.99173195708010537103e-03
  -4.26379239893659011534e-03
  -4.56393146773664305782e-03
  -4.89656828612079417229e-03
  -5.26699250492658650746e-03
  -5.68155700932209198339e-03
  -6.14791751446433325234e-03
  -6.67533146571147421866e-03
  -7.27503216144174177232e-03
  -7.96069854406943749892e-03
  -8.74904696184635767564e-03
  -9.66057878137545171515e-03
  -1.07205275345661418807e-02
  -1.19600619619406114968e-02
  -1.34178176958687882248e-02
  -1.51418514647238960924e-02
  -1.71921389165805085786e-02
  -1.96437721083968924729e-02
  -2.25910574016787261964e-02
  -2.61527713656948962440e-02
  -3.04789041038706354225e-02
  -3.57593092370303428096e-02
  -4.22347906018572666342e-02
  -5.02112898863047857345e-02
  -6.00779974064041058512e-02
  -7.23303865579730809188e-02
  -8.75993601704140728570e-02
  -1.06687869780392685648e-01
  -1.30616480237341570092e-01
  -1.60679320269794673193e-01
  -1.98511550131486164128e-01
  -2.46168682746561146013e-01
  -3.06216518536062631828e-01
  -3.81827716206252887332e-01
  -4.76876718226185658533e-01
  -5.96018622554800092672e-01
  -7.44729876173514604432e-01
  -9.29280642442855131513e-01
  -1.15660332860554504464e+00
  -1.43402396944413168534e+00
  -1.76883884726307005764e+00
  -2.16775165063145980326e+00
  -2.63623326310235306380e+00
  -3.17791251063927582265e+00
  -3.79412890466411356627e+00
  -4.48375794135547423025e+00
  -5.24335512113233370712e+00
  -6.06758057128305061667e+00
  -6.94979834945066166085e+00
  -7.88271928314888903344e+00
  -8.85897530179534342665e+00
  -9.87155821379030840035e+00
  -1.09141034513823758090e+01
  -1.19810339205086950898e+01
  -1.30675963969446211621e+01
  -1.41698261983257687291e+01
  -1.52844709998872403389e+01
  -1.64088967379614345532e+01
  -1.75409907190069631611e+01
  -1.86790707444582118057e+01
  -1.98218045838590768426e+01
  -2.09681412526765456050e+01
  -2.21172538774430016417e+01
  -2.32684930730163159751e+01
  -2.44213494093295935272e+01
  -2.55754234923161476445e+01
  -2.67304022848744260443e+01
  -2.78860404626249263060e+01
  -2.90421457864844896335e+01
  -3.01985676537220584237e+01
  -3.13551881491810746638e+01
  -3.25119150547130004725e+01
  -3.36686763877733739037e+01
  -3.48254161317853885294e+01
  -3.59820908942522592611e+01
  -3.71386672867453739855e+01
  -3.82951198666397942816e+01
  -3.94514295162534622818e+01
  -4.06075821629334683394e+01
  -4.17635677652983758890e+01
  -4.29193795076419277734e+01
  -4.40750131575100851933e+01
  -4.52304665515202515280e+01
  -4.63857391822717772811e+01
  -4.75408318652071244514e+01
  -4.86957464689359014187e+01
  -4.98504856961300930607e+01
  -5.10050529048879468519e+01
  -5.21594519626236490240e+01
  -5.33136871262191007759e+01
  -5.44677629434803733943e+01
  -5.56216841719582504311e+01
  -5.67754557119897071971e+01
  -5.79290825514386753525e+01
  -5.90825697201068678055e+01
  -6.02359222521698853825e+01
</dep>
<dep S[1,1] frequency>
  +1.21853159183818579234e-04+j1.88014275425154794852e-03
  +1.28475682751840055394e-04+j1.93034777911826015140e-03
  +1.35457687157996100377e-04+j1.98187841505329150060e-03
  +1.42818636248051382930e-04+j2.03476842050491837921e-03
  +1.50579042232737675237e-04+j2.08905230975950893801e-03
  +1.58760521545131495433e-04+j2.14476536090410160873e-03
  +1.67385853604929833900e-04+j2.20194362299908248659e-03
  +1.76479042636214656509e-04+j2.26062392235898586279e-03
  +1.86065382685657808824e-04+j2.32084386783064366977e-03
  +1.96171526000289415774e-04+j2.38264185494743360727e-03
  +2.06825554928230103020e-04+j2.44605706882840626126e-03
  +2.18057057508087501208e-04+j2.51112948567942112499e-03
  +2.29897206931382143066e-04+j2.57789987274070243883e-03
  +2.42378845053410510273e-04+j2.64640978651279473732e-03
  +2.55536570149703925678e-04+j2.71670156907768967081e-03
  +2.69406829115176175461e-04+j2.78881834231677928904e-03
  +2.84028014307523670248e-04+j2.86280399981132457898e-03
  +2.99440565255102049413e-04+j2.93870319619194721172e-03
  +3.15687075441302986492e-04+j3.01656133368604327527e-03
  +3.32812404399650306822e-04+j3.09642454558996943481e-03
  +3.50863795351920044335e-04+j3.17833967637179415355e-03
  +3.69890998629296982939e-04+j3.26235425808608231479e-03
  +3.89946401127852027360e-04+j3.34851648275728483450e-03
  +4.11085162054476661517e-04+j3.43687517035997508463e-03
  +4.33365355222537808333e-04+j3.52747973199655021070e-03
  +4.56848118165565806811e-04+j3.62038012784047028014e-03
  +4.81597808344119346358e-04+j3.71562681938068448129e-03
  +5.07682166721476219734e-04+j3.81327071546657195289e-03
  +5.35172488993283139783e-04+j3.91336311161531724689e-03
  +5.64143804752195894558e-04+j4.01595562200326300362e-03
