<Qucs Dataset 0.0.19>
<indep Versus.0001 201>
  +1.00000000000000005551e-01
  +1.03724286551264463507e-01
  +1.07587276205688225916e-01
  +1.11594134664288427428e-01
  +1.15750220013590476853e-01
  +1.20061089890615632636e-01
  +1.24532508914713388459e-01
  +1.29170456396176275282e-01
  +1.33981134331945972438e-01
  +1.38970975699102244905e-01
  +1.44146653057224904959e-01
  +1.49515087471132984698e-01
  +1.55083457765931687078e-01
  +1.60859210126744173186e-01
  +1.66850068055964778635e-01
  +1.73064042701348674846e-01
  +1.79509443568749565978e-01
  +1.86194889633830157338e-01
  +1.93129320867604648004e-01
  +2.00322010191225224895e-01
  +2.07782575875999631076e-01
  +2.15520994405220378543e-01
  +2.23547613815005430382e-01
  +2.31873167531990331813e-01
  +2.40508788726375155598e-01
  +2.49466025199520602396e-01
  +2.58756854826000359804e-01
  +2.68393701570759979358e-01
  +2.78389452102800694089e-01
  +2.88757473027604127935e-01
  +2.99511628761342296734e-01
  +3.10666300070774115127e-01
  +3.22236403303620855265e-01
  +3.34237410335135931572e-01
  +3.46685369257542008725e-01
  +3.59596925840002190622e-01
  +3.72989345787821835465e-01
  +3.86880537830647019959e-01
  +4.01289077670533456121e-01
  +4.16234232821910299371e-01
  +4.31735988376655555054e-01
  +4.47815073728736023906e-01
  +4.64492990294150420727e-01
  +4.81792040263241572173e-01
  +4.99735356423828103178e-01
  +5.18346933095034323458e-01
  +5.37651658213184502344e-01
  +5.57675346612668487722e-01
  +5.78444774546281514915e-01
  +5.99987715491200779283e-01
  +6.22332977288478361722e-01
  +6.45510440665717055708e-01
  +6.69551099194438337214e-01
  +6.94487100735580065169e-01
  +7.20351790428541804978e-01
  +7.47179755281264568190e-01
  +7.75006870420975713110e-01
  +8.03870347067439983135e-01
  +8.33808782292875250164e-01
  +8.64862210635070627340e-01
  +8.97072157632721189913e-01
  +9.30481695354574922519e-01
  +9.65135499996642720610e-01
  +1.00107991162449638800e+00
  +1.03836299614053784168e+00
  +1.07703460955910701458e+00
  +1.11714646467538036845e+00
  +1.15875220021721170305e+00
  +1.20190745257238273958e+00
  +1.24666993018718152975e+00
  +1.29309949073580043866e+00
  +1.34125822116374271431e+00
  +1.39121052071227335745e+00
  +1.44302318703493726026e+00
  +1.49676550552130671612e+00
  +1.55250934194740208838e+00
  +1.61032923857667387146e+00
  +1.67030251384006489523e+00
  +1.73250936572844227435e+00
  +1.79703297903566361349e+00
  +1.86395963659567609483e+00
  +1.93337883466240767483e+00
  +2.00538340258673297711e+00
  +2.08006962695055985790e+00
  +2.15753738032401676250e+00
  +2.23789025481792824834e+00
  +2.32123570061016959443e+00
  +2.40768516963114320717e+00
  +2.49735426460050558006e+00
  +2.59036289361445248858e+00
  +2.68683543049028017435e+00
  +2.78690088108263722688e+00
  +2.89069305579386925942e+00
  +2.99835074850913674283e+00
  +3.11001792219559947128e+00
  +3.22584390141384380613e+00
  +3.34598357199898543968e+00
  +3.47059758817846253365e+00
  +3.59985258740350078099e+00
  +3.73392141318151482565e+00
  +3.87298334620741835366e+00
  +4.01722434410293427476e+00
  +4.16683729008448189290e+00
  +4.32202225089216973686e+00
  +4.48298674432480481755e+00
  +4.64994601673866370106e+00
  +4.82312333088111877544e+00
  +5.00275026444402115544e+00
  +5.18906701973605777312e+00
  +5.38232274488818962510e+00
  +5.58277586702170491861e+00
  +5.79069443782443382673e+00
  +6.00635649199714993784e+00
  +6.23005041904960066290e+00
  +6.46207534894326141028e+00
  +6.70274155209652811038e+00
  +6.95237085428727485947e+00
  +7.21129706700752670656e+00
  +7.47986643384581206817e+00
  +7.75843809349407997900e+00
  +8.04738455999826030052e+00
  +8.34709222089480995521e+00
  +8.65796185389923778075e+00
  +8.98040916283760992656e+00
  +9.31486533353769452503e+00
  +9.66177761042303728800e+00
  +1.00216098945810969667e+01
  +1.03948433641051725118e+01
  +1.07819771175395491269e+01
  +1.11835288412884885645e+01
  +1.16000355018813809949e+01
  +1.20320540640198441196e+01
  +1.24801622353670076393e+01
  +1.29449592390747696413e+01
  +1.34270666150822908236e+01
  +1.39271290512571219722e+01
  +1.44458152454903423489e+01
  +1.49838187998986533955e+01
  +1.55418591483291184119e+01
  +1.61206825184067952250e+01
  +1.67210629294118646726e+01
  +1.73438032273204214562e+01
  +1.79897361583932742235e+01
  +1.86597254827482821327e+01
  +1.93546671294051471079e+01
  +2.00754903943475930816e+01
  +2.08231591832046731838e+01
  +2.15986733002131430226e+01
  +2.24030697851845310709e+01
  +2.32374243002645606282e+01
  +2.41028525683395571377e+01
  +2.50005118650133333347e+01
  +2.59316025661493085863e+01
  +2.68973697530477657835e+01
  +2.78991048774044045899e+01
  +2.89381474882767228962e+01
  +3.00158870233676964290e+01
  +3.11337646670217225164e+01
  +3.22932752774179192556e+01
  +3.34959693855376059446e+01
  +3.47434552685788560211e+01
  +3.60374011005911327743e+01
  +3.73795371832056844141e+01
  +3.87716582594446919074e+01
  +4.02156259137034197693e+01
  +4.17133710611143087021e+01
  +4.32668965296224072858e+01
  +4.48782797382246556595e+01
  +4.65496754749542063223e+01
  +4.82833187783251958081e+01
  +5.00815279260905157344e+01
  +5.19467075353096205959e+01
  +5.38813517778718633622e+01
  +5.58880477157746398120e+01
  +5.79694787606174699590e+01
  +6.01284282619372660861e+01
  +6.23677832291833169620e+01
  +6.46905381923095745833e+01
  +6.70997992061463861546e+01
  +6.95987880039063071536e+01
  +7.21908463053788693742e+01
  +7.48794402855741054736e+01
  +7.76681652097917947231e+01
  +8.05607502413139542341e+01
  +8.35610634281489836894e+01
  +8.66731168754971150747e+01
  +8.99010721108530219681e+01
  +9.32492456489200094438e+01
  +9.67221147637783218443e+01
  +1.00324323476024332535e+02
  +1.04060688762888887027e+02
  +1.07936206999638343973e+02
  +1.11956060640870873613e+02
  +1.16125625150644353312e+02
  +1.20450476190701607493e+02
  +1.24936397076405825146e+02
  +1.29589386510356803228e+02
  +1.34415666604028189113e+02
  +1.39421691198154377389e+02
  +1.44614154492992753376e+02
  +1.50000000000000142109e+02
</indep>
<indep frequency 201>
  +1.00000000000000000000e+05
  +1.03724286551264463924e+05
  +1.07587276205688220216e+05
  +1.11594134664288430940e+05
  +1.15750220013590471353e+05
  +1.20061089890615636250e+05
  +1.24532508914713384002e+05
  +1.29170456396176276030e+05
  +1.33981134331945970189e+05
  +1.38970975699102244107e+05
  +1.44146653057224903023e+05
  +1.49515087471132981591e+05
  +1.55083457765931700123e+05
  +1.60859210126744175795e+05
  +1.66850068055964773521e+05
  +1.73064042701348662376e+05
  +1.79509443568749557016e+05
  +1.86194889633830171078e+05
  +1.93129320867604634259e+05
  +2.00322010191225213930e+05
  +2.07782575875999638811e+05
  +2.15520994405220379122e+05
  +2.23547613815005432116e+05
  +2.31873167531990329735e+05
  +2.40508788726375147235e+05
  +2.49466025199520605383e+05
  +2.58756854826000373578e+05
  +2.68393701570759993047e+05
  +2.78389452102800714783e+05
  +2.88757473027604108211e+05
  +2.99511628761342319194e+05
  +3.10666300070774101187e+05
  +3.22236403303620871156e+05
  +3.34237410335135937203e+05
  +3.46685369257542013656e+05
  +3.59596925840002193581e+05
  +3.72989345787821861450e+05
  +3.86880537830647022929e+05
  +4.01289077670533442870e+05
  +4.16234232821910292841e+05
  +4.31735988376655557659e+05
  +4.47815073728736024350e+05
  +4.64492990294150426053e+05
  +4.81792040263241564389e+05
  +4.99735356423828110565e+05
  +5.18346933095034328289e+05
  +5.37651658213184447959e+05
  +5.57675346612668479793e+05
  +5.78444774546281551011e+05
  +5.99987715491200797260e+05
  +6.22332977288478403352e+05
  +6.45510440665717003867e+05
  +6.69551099194438313134e+05
  +6.94487100735580082983e+05
  +7.20351790428541833535e+05
  +7.47179755281264544465e+05
  +7.75006870420975727029e+05
  +8.03870347067439928651e+05
  +8.33808782292875228450e+05
  +8.64862210635070572607e+05
  +8.97072157632721238770e+05
  +9.30481695354574942030e+05
  +9.65135499996642698534e+05
  +1.00107991162449645344e+06
  +1.03836299614053789992e+06
  +1.07703460955910710618e+06
  +1.11714646467538038269e+06
  +1.15875220021721161902e+06
  +1.20190745257238275371e+06
  +1.24666993018718156964e+06
  +1.29309949073580047116e+06
  +1.34125822116374270990e+06
  +1.39121052071227342822e+06
  +1.44302318703493732028e+06
  +1.49676550552130676806e+06
  +1.55250934194740210660e+06
  +1.61032923857667390257e+06
  +1.67030251384006487206e+06
  +1.73250936572844232433e+06
  +1.79703297903566365130e+06
  +1.86395963659567618743e+06
  +1.93337883466240763664e+06
  +2.00538340258673275821e+06
  +2.08006962695055967197e+06
  +2.15753738032401679084e+06
  +2.23789025481792818755e+06
  +2.32123570061016967520e+06
  +2.40768516963114310056e+06
  +2.49735426460050558671e+06
  +2.59036289361445233226e+06
  +2.68683543049028003588e+06
  +2.78690088108263723552e+06
  +2.89069305579386930913e+06
  +2.99835074850913695991e+06
  +3.11001792219559941441e+06
  +3.22584390141384396702e+06
  +3.34598357199898548424e+06
  +3.47059758817846234888e+06
  +3.59985258740350091830e+06
  +3.73392141318151494488e+06
  +3.87298334620741847903e+06
  +4.01722434410293446854e+06
  +4.16683729008448170498e+06
  +4.32202225089216977358e+06
  +4.48298674432480521500e+06
  +4.64994601673866342753e+06
  +4.82312333088111877441e+06
  +5.00275026444402150810e+06
  +5.18906701973605807871e+06
  +5.38232274488818924874e+06
  +5.58277586702170502394e+06
  +5.79069443782443366945e+06
  +6.00635649199714977294e+06
  +6.23005041904960107058e+06
  +6.46207534894326142967e+06
  +6.70274155209652800113e+06
  +6.95237085428727511317e+06
  +7.21129706700752675533e+06
  +7.47986643384581245482e+06
  +7.75843809349408000708e+06
  +8.04738455999825987965e+06
  +8.34709222089480981231e+06
  +8.65796185389923863113e+06
  +8.98040916283760964870e+06
  +9.31486533353769406676e+06
  +9.66177761042303778231e+06
  +1.00216098945810962468e+07
  +1.03948433641051724553e+07
  +1.07819771175395492464e+07
  +1.11835288412884883583e+07
  +1.16000355018813814968e+07
  +1.20320540640198439360e+07
  +1.24801622353670075536e+07
  +1.29449592390747703612e+07
  +1.34270666150822900236e+07
  +1.39271290512571223080e+07
  +1.44458152454903423786e+07
  +1.49838187998986542225e+07
  +1.55418591483291182667e+07
  +1.61206825184067953378e+07
  +1.67210629294118657708e+07
  +1.73438032273204214871e+07
  +1.79897361583932749927e+07
  +1.86597254827482812107e+07
  +1.93546671294051483274e+07
  +2.00754903943475931883e+07
  +2.08231591832046732306e+07
  +2.15986733002131432295e+07
  +2.24030697851845324039e+07
  +2.32374243002645596862e+07
  +2.41028525683395564556e+07
  +2.50005118650133349001e+07
  +2.59316025661493092775e+07
  +2.68973697530477643013e+07
  +2.78991048774044029415e+07
  +2.89381474882767237723e+07
  +3.00158870233676955104e+07
  +3.11337646670217216015e+07
  +3.22932752774179168046e+07
  +3.34959693855376094580e+07
  +3.47434552685788571835e+07
  +3.60374011005911305547e+07
  +3.73795371832056865096e+07
  +3.87716582594446912408e+07
  +4.02156259137034192681e+07
  +4.17133710611143112183e+07
  +4.32668965296224057674e+07
  +4.48782797382246553898e+07
  +4.65496754749542027712e+07
  +4.82833187783251926303e+07
  +5.00815279260905161500e+07
  +5.19467075353096202016e+07
  +5.38813517778718620539e+07
  +5.58880477157746404409e+07
  +5.79694787606174722314e+07
  +6.01284282619372680783e+07
  +6.23677832291833162308e+07
  +6.46905381923095807433e+07
  +6.70997992061463817954e+07
  +6.95987880039063096046e+07
  +7.21908463053788691759e+07
  +7.48794402855741083622e+07
  +7.76681652097917944193e+07
  +8.05607502413139492273e+07
  +8.35610634281489849091e+07
  +8.66731168754971176386e+07
  +8.99010721108530163765e+07
  +9.32492456489200145006e+07
  +9.67221147637783288956e+07
  +1.00324323476024329662e+08
  +1.04060688762888893485e+08
  +1.07936206999638348818e+08
  +1.11956060640870869160e+08
  +1.16125625150644347072e+08
  +1.20450476190701603889e+08
  +1.24936397076405823231e+08
  +1.29589386510356798768e+08
  +1.34415666604028195143e+08
  +1.39421691198154389858e+08
  +1.44614154492992758751e+08
  +1.50000000000000149012e+08
</indep>
<dep dBS11 frequency>
  -2.24084630718634625635e-10
  -3.23114311247630058302e-10
  -4.65919637127545766274e-10
  -6.71858517929242380260e-10
  -9.68854984116824219057e-10
  -1.39717838639753991510e-09
  -2.01492849036918134087e-09
  -2.90591113897612954768e-09
  -4.19103949622280079145e-09
  -6.04476233005281998844e-09
  -8.71877971806482827499e-09
  -1.25762921025033596079e-08
  -1.81414355749382273923e-08
  -2.61706478977401675306e-08
  -3.77557242579949352202e-08
  -5.44726621892460653904e-08
  -7.85966289951604274456e-08
  -1.13412508519286253648e-07
  -1.63663600421617750513e-07
  -2.36199998531304940090e-07
  -3.40915759503886592145e-07
  -4.92103661504788608257e-07
  -7.10414143170442683286e-07
  -1.02568846279424103739e-06
  -1.48105723231331258350e-06
  -2.13887104706001363475e-06
  -3.08928463060404603457e-06
  -4.46268544571454269480e-06
  -6.44769442341238720602e-06
  -9.31724589652182054033e-06
  -1.34663869322685009390e-05
  -1.94670838284015449956e-05
  -2.81477213489596601902e-05
  -4.07084712017456151474e-05
  -5.88887932637203998345e-05
  -8.52107493174214037420e-05
  -1.23332630502631337326e-04
  -1.78563199270098216069e-04
  -2.58609931765833302945e-04
  -3.74668398656612154987e-04
  -5.43009299668247577900e-04
  -7.87291937651665913768e-04
  -1.14193872519808507088e-03
  -1.65706021735508935225e-03
  -2.40564682129927208051e-03
  -3.49407457729548898140e-03
  -5.07745536655021100642e-03
  -7.38206326307956715166e-03
  -1.07380806445225001483e-02
  -1.56273524032243156523e-02
  -2.27528650255916370382e-02
  -3.31394386926356504519e-02
  -4.82787363310987899245e-02
  -7.03360282784200735451e-02
  -1.02440472752393041400e-01
  -1.49082871657543775124e-01
  -2.16640071458029520590e-01
  -3.14023759181195516454e-01
  -4.53397291053906248415e-01
  -6.50797599377372693041e-01
  -9.26333185216323240496e-01
  -1.30345207973801802126e+00
  -1.80674716117453137976e+00
  -2.45815089286735233287e+00
  -3.27228153458124371156e+00
  -4.25268722484964101227e+00
  -5.39081860293483483559e+00
  -6.66826956991717345602e+00
  -8.06107944648319829639e+00
  -9.54413298704765544755e+00
  -1.10942650590357239082e+01
  -1.26917318307872122318e+01
  -1.43204198796035093721e+01
  -1.59673508425082637530e+01
  -1.76219244329563267115e+01
  -1.92751602298476427677e+01
  -2.09190582394917967690e+01
  -2.25461183469693722259e+01
  -2.41490232420458248441e+01
  -2.57204781644315332301e+01
  -2.72531992431297354074e+01
  -2.87400414368463721360e+01
  -3.01742524216267717918e+01
  -3.15498286741274291956e+01
  -3.28619358113577817448e+01
  -3.41073410430764525358e+01
  -3.52847972555082236568e+01
  -3.63953213801790198545e+01
  -3.74423268869518395263e+01
  -3.84315990735923165289e+01
  -3.93711352781101595610e+01
  -4.02709014920342767141e+01
  -4.11425757148189248369e+01
  -4.19993556083135715085e+01
  -4.28559081651252284928e+01
  -4.37285412288930714908e+01
  -4.46356933124808747948e+01
  -4.55988873087079511492e+01
  -4.66444080089852235460e+01
  -4.78062156296546305612e+01
  -4.91311839355054047473e+01
  -5.06891862568481599283e+01
  -5.25946067918069815050e+01
  -5.50595503140545190490e+01
  -5.85595922861034239304e+01
  -6.46282562340199291384e+01
  -9.63102936272731966483e+01
  -6.40536602031453980999e+01
  -5.80691379829130909229e+01
  -5.45109516930726201167e+01
  -5.19571782850120058583e+01
  -4.99564714756932204409e+01
  -4.83067007872276690250e+01
  -4.68997158753861782543e+01
  -4.56708263248000179146e+01
  -4.45782330660463728123e+01
  -4.35933467962664522588e+01
  -4.26957367560886851265e+01
  -4.18702832917344238695e+01
  -4.11054724323149756060e+01
  -4.03923231516410581321e+01
  -3.97236845464085703838e+01
  -3.90937590922020845596e+01
  -3.84977692571145837519e+01
  -3.79317178632970382068e+01
  -3.73922113423429109957e+01
  -3.68763260676907194124e+01
  -3.63815046597267439665e+01
  -3.59054733599997248916e+01
  -3.54461742667354542391e+01
  -3.50017079935572041904e+01
  -3.45702835010064504218e+01
  -3.41501726674808168127e+01
  -3.37396677474942450203e+01
  -3.33370403011451870157e+01
  -3.29405005341207015590e+01
  -3.25481563129189552797e+01
  -3.21579714583724225463e+01
  -3.17677233116486554820e+01
  -3.13749600482216415287e+01
  -3.09769588206415917853e+01
  -3.05706865652934283162e+01
  -3.01527662182268016977e+01
  -2.97194521235678550397e+01
  -2.92666195045798680496e+01
  -2.87897738463456143165e+01
  -2.82840866625946958379e+01
  -2.77444640496841969934e+01
  -2.71656532791711633479e+01
  -2.65423901000156732266e+01
  -2.58695852615134747055e+01
  -2.51425432637176804462e+01
  -2.43572002717254960658e+01
  -2.35103628349707989287e+01
  -2.25999262189102552156e+01
  -2.16250523427233574125e+01
  -2.05862933527334810435e+01
  -1.94856573795668097659e+01
  -1.83266263883687550162e+01
  -1.71141497215295537160e+01
  -1.58546482015862917336e+01
  -1.45560699312912547043e+01
  -1.32280374957838944283e+01
  -1.18821130942609709535e+01
  -1.05321760904533707759e+01
  -9.19484579152508274547e+00
  -7.88978107963848707129e+00
  -6.63955555546111320098e+00
  -5.46870020592745831323e+00
  -4.40156229511023866507e+00
  -3.45901712250042958630e+00
  -2.65478397864331672196e+00
  -1.99272660232949716530e+00
  -1.46640736094754409180e+00
  -1.06113595883371081285e+00
  -7.57532464104133551608e-01
  -5.35144832433342543254e-01
  -3.75085160755398439036e-01
  -2.61403040227411009866e-01
  -1.81442244345700359753e-01
  -1.25590691110819580034e-01
  -8.67694462229510465878e-02
  -5.98761978213074447241e-02
  -4.12880530642174073397e-02
  -2.84591363689991362629e-02
  -1.96131309501191598843e-02
  -1.35166696595498576905e-02
  -9.31617343487680521497e-03
  -6.42217822611960802159e-03
  -4.42817493460143703915e-03
  -3.05406047696760250126e-03
  -2.10692068685797194785e-03
  -1.45391740274649012080e-03
  -1.00358186068541304845e-03
  -6.92924598092741926211e-04
  -4.78560122368090377302e-04
  -3.30598380934710514567e-04
  -2.28441162946503800810e-04
  -1.57889333997171532609e-04
  -1.09151868216922698428e-04
  -7.54752531063599860998e-05
</dep>
<dep FilterResponse Versus.0001>
  -1.02873756297910276203e+02
  -1.01284300570149042642e+02
  -9.96947380701496115307e+01
  -9.81050607309425117819e+01
  -9.65152598789089921638e+01
  -9.49253261886155996763e+01
  -9.33352496343609061569e+01
  -9.17450194382072794497e+01
  -9.01546240142580757038e+01
  -8.85640509089261485087e+01
  -8.69732867369265250090e+01
  -8.53823171127120588153e+01
  -8.37911265770572413203e+01
  -8.21996985184828190540e+01
  -8.06080150892020128595e+01
  -7.90160571152592439148e+01
  -7.74238040005246688224e+01
  -7.58312336242051827639e+01
  -7.42383222315339423858e+01
  -7.26450443173113029616e+01
  -7.10513725019916648762e+01
  -6.94572774000479853385e+01
  -6.78627274804061784153e+01
  -6.62676889188339401926e+01
  -6.46721254423050169180e+01
  -6.30759981655616002172e+01
  -6.14792654203888702114e+01
  -5.98818825785368957781e+01
  -5.82838018698305475596e+01
  -5.66849721978786718068e+01
  -5.50853389570433620293e+01
  -5.34848438561282861770e+01
  -5.18834247568303794651e+01
  -5.02810155387289015039e+01
  -4.86775460079667254831e+01
  -4.70729418745630212584e+01
  -4.54671248345708534089e+01
  -4.38600128096509678244e+01
  -4.22515204204061518567e+01
  -4.06415598044139798617e+01
  -3.90300419403059279944e+01
  -3.74168787127732187514e+01
  -3.58019860607307478517e+01
  -3.41852887076543083822e+01
  -3.25667272020643991937e+01
  -3.09462683301782561784e+01
  -2.93239204491339862102e+01
  -2.76997559947219471610e+01
  -2.60739444345361484068e+01
  -2.44468003883705655710e+01
  -2.28188536736389693260e+01
  -2.11909508141323001951e+01
  -1.95644011773150765521e+01
  -1.79411852535642744044e+01
  -1.63242469285708011739e+01
  -1.47178938191086068343e+01
  -1.31283249761669917888e+01
  -1.15642838679687756098e+01
