!Keysight Technologies N9926A: A.10.18
!Date: Sunday, 26 July 2020 01:13:55
!Timezone: 
!Model: N9926A
!Serial: MY57271140
!GPS Latitude: 
!GPS Longitude: 
!GPS TimeStamp: 0001-01-01 00:00:00Z
!GPS Seconds Since Last Read: 0
!CHECKSUM:0672457289
!Correction: S11(ON U)S21(ON U)S12(ON U)S22(ON U)
!S2P File: Measurements:S11,S21,S12,S22:
# Hz S DB R 50
500000	-2.69492365095496	17.4598329410406	-14.0900629912529	-172.928078492857	-48.5665358147638	53.8849650100495	-0.710250872464755	-76.7974615264364	
750000	-2.77696886748391	13.2082115902848	14.8337922102093	78.3264821918091	-59.0150494321329	78.0311772088284	-0.608142504580941	-107.772562164115	
1000000	-2.57458507682393	9.60539742160865	22.2759336276721	-11.5593626810497	-51.0338465259122	56.6812760486	-1.6736169499155	-138.568762979818	
1250000	-2.40035003773583	5.33851691626881	30.6389380168117	-68.511289210003	-50.410685274819	120.899793513742	-4.20381282058609	-159.265240302376	
1500000	-2.95147664907844	3.60258561924872	34.0183346185668	-129.12109617763	-53.7092544743302	161.395958984233	-5.31710551012502	-154.89574375742	
1750000	-1.82590112765422	3.20041158041764	33.5041035033162	-168.537760461406	-54.5449409387961	-1.71854569499384	-4.24896580335584	-168.765913173538	
2000000	-1.67682712300023	1.20947596026775	34.3704119838438	169.688612455301	-51.0939780824396	-12.7536759056599	-4.68684720877569	177.843172126849	
2250000	-1.34895090243201	1.53598226622994	34.493796063228	152.552208841963	-45.1295573478527	50.1297628164825	-6.29303362995853	153.549070050799	
2500000	-2.06649352220013	2.21754878561282	35.4643624585616	134.555034708889	-45.2948658216745	149.001024931889	-4.12718972334703	140.065254851049	
2750000	-1.83493222802752	-2.70563777776401	36.3260555720685	121.712798647985	-54.0621792882275	160.957737108178	-5.70389589687964	131.341377474498	
3000000	-2.74739464723675	5.29931662507818	37.4952600243578	112.555353868562	-42.5026093134649	-167.72374838793	-4.9679934099099	118.979895434241	
3250000	-1.1300173870531	-9.04205043114888	37.4833914799923	104.033693840275	-55.9691362018637	68.7123432700646	-10.4173154166481	105.811580399265	
3500000	-2.44050561026403	-10.9661257815598	38.209434525579	92.6605049319743	-52.4386757132594	-51.7666249724635	-12.29203228162	121.034582611165	
3750000	-0.888032666523912	0.536200028681852	37.7374455215387	82.8384073013171	-43.4720971302581	177.46840570908	-9.82981003992422	72.1031441095662	
4000000	-0.316292880099705	-10.8925706978294	38.4687514983008	78.5274716426918	-46.9994735258485	93.8645006773565	-17.5735414916278	27.6659310549138	
4250000	-1.80927511750705	-10.3256144945534	38.4487135329715	70.1008082594489	-56.3260989080908	-159.41829131617	-18.4515020537985	76.3655522674722	
4500000	-1.68329734406342	-15.855755270529	39.0328146844082	61.0364287037763	-53.6383779323339	97.9389464807738	-25.2724627128817	73.2135103795675	
4750000	-1.57450699614651	-15.8249082258468	39.2046214734942	57.0562816454431	-49.6757133394925	83.9581852370492	-25.3295526190293	-56.23227332876	
5000000	-2.76615015673686	-14.4286377461655	39.2979509353412	45.616674599698	-47.738406457354	-29.8987739249575	-13.8817770119327	177.958535788711	
5250000	-2.97574030481338	-7.56067555156575	38.9812375534203	43.3321746657603	-44.4070298189746	-81.8293842480649	-15.3322240136058	111.279077793887	
5500000	-1.41052030881831	-11.6015099512755	38.6343335045843	37.3040029708228	-52.7049201374276	-178.698378689886	-31.1012921427067	156.413414977487	
5750000	-2.30044958360338	-25.3449905428248	39.6229857096135	36.8966026743792	-45.6206349173604	79.328411027679	-10.6021566892354	-125.150274950934	
6000000	-1.65134151072353	-15.7831129943025	39.7113843242135	29.8859576716176	-52.6016608900083	177.555801649726	-20.8276278377087	-160.955227579131	
6250000	-2.38029849164582	-22.0907508784	38.9882671904769	27.0638207871027	-56.4368658963846	51.3976890418819	-18.1245795390826	-167.709951710984	
6500000	-4.05435470676834	-16.2341972037955	39.7552422640704	16.5644225917995	-45.8678143866622	-42.43391443495	-12.1319818848352	147.818079601438	
6750000	-1.38948653563473	-27.077928923079	39.9555229661549	20.9046415965489	-48.2475677058614	95.9354433055069	-13.7770893903313	-155.683095173572	
7000000	-2.57795683545569	-24.2260499105808	39.3750274366787	13.9682571314398	-49.0526381453103	45.825146321548	-11.7888695905798	-171.56150908468	
7250000	-2.33583506464536	-25.5470084369112	39.2203701335984	11.3278019501702	-51.7908724191113	74.622875301443	-13.123793527784	-163.312972845501	
7500000	-1.58093538945075	-19.7957069113413	39.3729945073701	8.74381819432728	-53.8534394882031	-152.20835667295	-15.0783516737438	174.391752920866	
7750000	-2.62968105580275	-23.7811082392276	39.2757066231733	6.05077436318824	-50.9560992441768	20.6504572172274	-10.4646195967672	161.519923729889	
8000000	-2.99245273897431	-28.0381119989571	38.7083990680986	-1.18940796382518	-45.3282406517674	73.3589744655909	-9.01577402830404	-165.468072941213	
8250000	-1.66146910207503	-27.3093550371169	39.1660005888391	2.20945777683261	-47.5266666321978	97.666951762976	-10.7215173262482	-175.976247005051	
8500000	-1.27955472818655	-21.6168476635052	38.9144541859991	-1.22868291521393	-48.7764003035039	-161.851006382749	-19.6985030306663	175.259735510105	
8750000	-1.81202381262165	-22.5756612490463	38.9091457322308	-8.34604240641281	-50.0090104505607	-112.312886446346	-13.5538797602027	140.27350633014	
9000000	-1.8467398596377	-27.3138104075495	38.9829482043675	-11.0948137385539	-50.0220683256893	-148.682217630053	-16.2302567278478	158.542170610692	
9250000	-2.9606093017701	-24.1211460100833	39.0827776676674	-13.9702158577687	-53.2135123037805	-25.5756421525938	-13.327177029067	143.025737247236	
9500000	-3.70749344127093	-24.5181567835751	38.9062494828711	-16.2405013936633	-45.3919124455154	4.84671474074695	-8.15331715178523	141.40110679901	
9750000	-2.36629403208807	-21.6868345564293	38.6436026010856	-15.8777028622313	-50.655736892224	-76.6597073257974	-13.2949925166474	124.719901184698	
10000000	-1.98975532500728	-35.8338838268959	39.0164846265292	-18.7669688445444	-49.8755421420988	117.147531078717	-10.930457707278	176.668670862455	
10250000	-2.21400105625238	-32.2805734061058	38.9961011912311	-26.3744800775612	-68.6732227125525	124.079437948789	-13.8231128113314	154.324271881704	
10500000	-2.68825951517731	-31.952657300864	38.6327739516708	-23.8077782765405	-51.3941185345602	0.764220288848065	-9.98940697152822	144.860337916468	
10750000	-1.52373829995906	-39.0076662793353	39.4313156687682	-22.214283099717	-45.6492275671473	142.755287616363	-11.156908661094	169.851106446382	
11000000	-2.05941801798035	-36.3529666368943	39.1941452158121	-28.3835124564938	-55.3538379252475	166.221023799133	-13.6017769475992	147.975423934652	
11250000	-2.72586706203261	-30.3764556764939	38.7967870400917	-29.6965183259219	-53.3840034060414	-25.9316241261367	-11.4286792328077	129.525221400514	
11500000	-0.832369151525624	-41.0103998880255	39.0879733029569	-28.4980621783392	-44.1092492838234	171.103724366244	-14.9522036068805	179.783738216367	
11750000	-3.83138960522353	-36.4734413198455	38.6174398947164	-35.6399392325336	-49.8170198437124	46.7603672838931	-10.5813991506128	132.932243390024	
12000000	-3.00008028688768	-21.024103478072	38.5285463532833	-36.9345587673195	-42.8881199285674	-25.8201861161516	-8.7378663932119	91.3888839456746	
12250000	-1.73952930855475	-34.6561260467488	38.524730662991	-35.5271716832821	-53.2547248269082	-102.94775928535	-15.6754329358852	111.459069738884	
12500000	-2.1142387054049	-30.4441520030464	38.4985724580003	-39.1489399329492	-46.2484287350706	-49.1725739130225	-11.509057701716	101.285410193554	
12750000	-3.13180694876109	-31.8251299485023	38.5592128377558	-43.6951125278068	-46.841328495804	1.1627640779994	-10.8558708302633	111.991684473505	
13000000	-2.27631811790708	-35.00810740806	39.0538186981485	-41.1363154810692	-51.5555575248462	-57.9613012239067	-14.1921470225439	106.113136987468	
13250000	-2.81343183700954	-49.6371448237537	39.2388738432254	-46.9227355948888	-52.3529975859211	150.581068863074	-12.0638117924264	142.78095213868	
13500000	-3.05491667685696	-44.8875723769097	38.8939281406078	-46.323993294587	-50.0173009923481	137.145102562384	-11.2099793050238	147.810199630619	
13750000	-2.41040967767946	-44.0338309103623	39.4344459948618	-48.3515244925393	-58.4261489803407	-71.5624274328341	-12.1171876095144	99.3191602338458	
14000000	-3.81252669684045	-35.0803456524146	38.5414059450508	-59.7988935415821	-43.4863476831781	-29.1674905259931	-11.6367080949325	90.4215162675914	
14250000	-3.49799922934581	-44.5756147105882	39.2029984177127	-53.8293688022063	-49.5890923363412	55.9833352422897	-11.8090266369662	111.896786390931	
14500000	-1.69112876263186	-32.5469933465407	38.3475725462568	-54.9644505760312	-42.7674564833343	-27.3787104253517	-12.266012770033	73.2972363861973	
14750000	-1.76666195622293	-42.2126949590545	38.8754624941786	-56.0525311474944	-45.2463921206841	-72.0670681390006	-14.7268395135791	82.5681653799019	
15000000	-3.49179507546157	-35.8500123663767	38.4815633385364	-58.8929527939199	-46.2317844531694	-18.9858397627389	-11.6599295935599	94.4187333715287	
15250000	-2.47197576114222	-44.135494300948	38.915978820249	-61.8828283920887	-48.1652334102598	-55.1267142625619	-15.1510076231402	81.6245908382967	
15500000	-3.19655743984291	-39.7807485624236	38.8407207051789	-63.1781589751743	-46.0757115932078	5.02836268597701	-11.4301249481263	88.8729770047705	
15750000	-3.39082655047821	-46.3310671984485	38.8230903297268	-64.3002218759969	-52.5214135969732	3.24610376946124	-12.3808561075161	97.5083042137335	
16000000	-3.91167306948021	-42.9628031708019	38.6065374695719	-68.8229639618017	-45.5559054394658	-4.71626676969203	-11.5128196871255	86.8166929537523	
16250000	-2.22601975029589	-42.6184740457623	38.5676231189537	-68.4788866505222	-43.7345525634219	-13.7139104362838	-12.0785228463713	71.6897116218429	
16500000	-4.44125253748573	-47.099087315592	38.5939917202656	-72.1343703897491	-50.9626354491611	48.8511460752647	-12.6252514577626	92.5411185264339	
16750000	-5.72003934045479	-58.6721905630408	38.7431998536693	-74.3272850516398	-42.5926102385734	90.0461817702036	-8.85739172083237	112.152811336723	
17000000	-2.46405840168223	-58.3301095655103	39.6652315473178	-75.6551184890809	-57.4455927099452	-136.174382825776	-17.5118093316232	113.591228147959	
17250000	-2.6504804847819	-58.2361240116553	39.4922113392405	-76.0060742862079	-50.897680202226	-128.793935321775	-15.2012096332937	95.6971536498649	
17500000	-3.96051543271009	-44.281028225861	38.4494493003451	-79.6754722725128	-44.481199676772	11.7096079338174	-12.9076822724024	73.7148582634407	
17750000	-2.66714262420882	-62.2496861679233	39.0561800285399	-78.7843311324637	-50.6114483840892	-124.099140825549	-18.8567166887898	103.649971411185	
18000000	-4.41287335272328	-59.8659164292833	38.6811822301108	-80.7535278590341	-54.3985193067468	141.726457144694	-16.312974983186	105.645056482779	
18250000	-3.15483628692769	-52.6460789477133	38.04621608826	-83.3156753136054	-48.203840684777	-59.5474850322215	-15.8286219589676	47.8399797621097	
18500000	-4.69269378162287	-62.4561382120503	39.1258957897897	-86.3801479906401	-56.1753372791502	113.735386693743	-13.1223312377719	83.3782323657206	
18750000	-2.96585018482511	-52.1985058976934	38.6521865329434	-86.2851678073701	-47.6001808973062	-48.8715239673159	-15.1438703869941	33.2404151318756	
19000000	-2.73964765391102	-56.5358507669932	38.8398063500027	-87.3075944753041	-46.0033206613041	-52.6359302651083	-19.7527067804997	53.5113873710617	
19250000	-5.624990141014	-58.5621218914363	38.5260168762869	-92.078881409648	-46.9314005935421	83.3879769895477	-11.4920717768743	83.9093047005109	
19500000	-3.65140065930847	-58.8581076292763	38.4674802612034	-90.227209505876	-55.1261067539372	-59.8419200038977	-15.1593755825922	60.6395845632898	
19750000	-2.99118539705145	-52.0262780249588	38.7122462362454	-91.9625550634534	-45.9116630487034	-32.2032056982777	-14.1585312785013	25.4035235687349	
20000000	-4.52671362630757	-49.6961249645269	38.4439741031627	-92.2464820693997	-47.6773443377237	19.263881825449	-13.3202508570252	62.1423199050391	
20250000	-2.28012520341075	-52.1040307123445	38.365143810967	-92.7039535173871	-42.7821760851968	-19.7548642194751	-13.4449954415437	27.1922247982861	
20500000	-4.5731433916614	-52.230596186524	38.2563444427313	-96.8638950667972	-46.8717939031325	6.9627094109031	-13.4777460378968	38.9378549077948	
20750000	-3.71187652445466	-75.5369625058328	38.6509882309442	-104.953507218998	-44.3307574837935	-112.993923017217	-35.9390137282533	82.4066117561023	
21000000	-1.46690934835207	-55.2962146720056	38.6464629946797	-99.0945467828536	-41.9085894563355	-51.1924532729707	-12.9035840657184	-14.7526209177554	
21250000	-4.79267329946676	-68.0667163273515	38.7464391377142	-102.552849896731	-55.1103662900139	-135.323145558423	-18.4531371404331	70.3727259194436	
21500000	-5.5296435067582	-64.1559914083291	38.4292515695376	-105.549883776607	-53.6894374374614	162.0150560441	-17.5713757135528	86.8648107331611	
21750000	-4.56916018993237	-66.2951151837671	38.4687487714912	-105.453197131859	-55.5749244293068	-70.7820809825333	-19.87256576581	29.5640659776087	
22000000	-5.58329549456573	-71.1728770158698	38.5870040820009	-106.794152826385	-49.9711134945539	-174.646733903816	-17.666911594044	94.8864013936949	
22250000	-5.2034914874254	-61.3009691324264	38.0209907500723	-109.503515998065	-54.4981735923745	42.2174837118995	-14.8515281927819	46.5071357751184	
22500000	-4.22370626673079	-72.7769163532043	38.0980114113998	-110.86406342512	-45.9475483367754	-98.9146069094829	-24.9420788421404	39.6897118279847	
22750000	-2.90157222178849	-56.0346657663199	38.6239639522946	-109.135464142287	-45.1093663836864	-6.8469326179251	-15.0089513911986	1.66843286316884	
23000000	-3.03985383754357	-54.349051439005	38.4729746059189	-111.98916442632	-43.1434959787362	-0.0841553749847879	-13.1014744904917	-5.13442241235783	
23250000	-5.92149015530049	-61.6535387404305	38.4618515591741	-114.953900846107	-50.0401056885402	95.786237928339	-13.549451372731	47.2256094981858	
23500000	-5.61089125642322	-53.6302601414906	37.9376174741226	-115.946708878941	-45.4364881325599	41.3981664075604	-13.6735202090869	27.0304013378827	
23750000	-4.08968174316284	-60.3172265974004	38.3809312055392	-115.731629716216	-48.0772083394704	-47.1178218463862	-16.6161381796581	-10.2056263767542	
24000000	-1.44477482821946	-76.3389010928332	39.3254974740194	-121.468408097305	-41.6670473472932	-59.5699202609394	-15.2995366203	-61.026347856234	
24250000	-3.96212159885105	-71.3691204747319	38.119479052762	-121.773263179791	-51.1927091083642	-33.2061304728199	-19.3643764564741	-11.2254137775522	
24500000	-5.50770825572587	-65.4306993285842	38.4424446005587	-124.948444085581	-68.8945073223023	-151.061501542255	-20.6800390441075	13.7360326934127	
24750000	-5.30065361750007	-65.0669155333139	38.2836636503112	-124.870089136101	-63.4891806814725	-157.817033561099	-25.7948933829028	28.3867985378238	
25000000	-3.82180205708665	-69.6711689891323	38.1581540937029	-122.915098503072	-45.3415175237451	-61.4039280258331	-18.3989630542492	-51.8633773352488	
25250000	-5.62390444475048	-77.1211017558606	38.4379280602614	-127.904146459082	-46.857070779674	-140.017499416883	-24.0123990752059	-179.015086793278	
25500000	-5.63359146340928	-61.1797847335156	38.3514795116315	-126.89612339782	-50.9803345987596	88.985848313888	-19.5489513494343	27.6544610621	
25750000	-3.69079126577572	-65.1850188104782	38.4332663089254	-128.384525366432	-50.1852868418666	16.9008535695111	-18.2765825734191	-22.7166654868159	
26000000	-5.98209861636315	-83.4856180709862	37.9892378300508	-133.476334783408	-42.5040571287935	-142.507321782203	-22.5934314756892	142.971725094814	
26250000	-4.63934097851974	-74.0032040221407	38.5757874791157	-133.289445306248	-48.4981980878362	-87.0561780860788	-20.3992362814201	-92.3067360546086	
26500000	-4.34433786649283	-77.5978023568205	38.2382044326801	-139.232855541166	-45.3006520768557	-52.3818314565072	-18.2996566341	-82.2294602946716	
26750000	-4.58491289740446	-74.6446750892604	38.1317719306119	-139.533972731164	-47.9982547083713	-30.2510955765241	-18.7841136801483	-58.6972632955873	
27000000	-4.75761985266417	-73.4200574681401	38.1026619946192	-138.219701142323	-49.9481918028322	-52.0869300821292	-20.7737023359183	-85.2433130026634	
27250000	-6.049892361526	-87.3325545055535	37.7172799573154	-142.562121238524	-44.181897828887	-126.698691499061	-20.1825626430746	169.905267119609	
27500000	-5.42395298216507	-81.52759822559	37.8784275068569	-144.049733176985	-45.7290049882754	-103.334469085449	-21.7793236850883	-133.678976249922	
27750000	-3.46931015523877	-77.7822810652872	38.4247826606573	-140.270355446534	-44.361515587708	-73.7889412430312	-16.368644143004	-104.512672657952	
28000000	-4.44467328616298	-77.426903177019	38.085806792812	-144.0992341356	-50.2773943618388	-50.5882423787169	-19.1533513190457	-67.763502079336	
28250000	-5.7750570425149	-83.0294769087907	38.2089969713606	-147.787618821409	-42.7173517272733	-104.733780535275	-14.1212077435604	-141.61800443874	
28500000	-5.59158348253102	-90.3180873943877	38.2367631219695	-150.846913792636	-43.5669010657166	-113.357332900957	-21.6959188693417	-174.140906144481	
28750000	-6.41538837105337	-87.6392635818171	38.2124507752757	-151.67822201291	-44.4753942129246	-132.707521461853	-18.1081690005401	-161.7523728482	
29000000	-4.0243315573496	-111.529462959126	38.2072053583449	-157.525996192636	-38.7531302552851	-90.9846191787154	-9.77089839180883	-153.875163881213	
29250000	-5.44991192214858	-62.4671772634673	37.7842226963476	-149.909249345163	-45.0578029164361	97.483095973143	-16.3001660821674	-23.5040038208565	
29500000	-7.19394413908071	-90.7553166867181	37.9163101289387	-155.656200709137	-40.8606722981766	-145.835012141348	-16.1113453593652	138.015129981736	
29750000	-5.46456392031732	-71.9933980945685	37.8571827124208	-156.716094447326	-62.4109655776492	90.1888456405385	-24.3732863655932	-122.699142481414	
30000000	-3.84591696524339	-83.4583619210903	38.2771857215366	-159.241738716209	-47.1843893188502	-39.3556727125543	-15.8185932072156	-94.6646513889839	
30250000	-7.59254511784243	-85.8463906015559	37.6216103459656	-160.021822001544	-44.0777922771624	-144.670381949101	-22.69454645137	-178.647407357792	
30500000	-5.57310381205702	-70.3229391900101	38.1160438884771	-161.351410885874	-46.841124081669	148.580184114828	-27.0691526856957	15.0102363590272	
30750000	-4.37881152400139	-85.2798756613409	38.5012577286283	-164.486808113939	-54.4232012355743	-120.845347167177	-19.6397731858495	-150.665868953447	
31000000	-5.01875704655319	-76.7946281052328	38.2001466310688	-162.517904715835	-54.6392182798858	147.855005154823	-22.206347840006	-117.695292234173	
31250000	-7.85592654200574	-91.1608637001936	37.7758655182812	-165.031992264699	-39.8731849945992	-143.02478739889	-15.6452713791951	140.13963112321	
31500000	-5.25135427091452	-102.042640667456	38.1293792489222	-170.675499909023	-39.3559904659837	-76.5308315852563	-12.0246193016012	-156.069543218905	
31750000	-5.54826157880707	-91.5411241715659	37.7973186694732	-168.588675044487	-46.9675573614364	-89.6056856689693	-16.0637517893068	-163.89626181356	
32000000	-6.78806788104642	-90.6351549371236	37.9030450089216	-171.8437383434	-45.1364386229476	-130.110748606198	-14.2326709876563	-177.060173614286	
32250000	-5.86776662780179	-78.4040392963797	38.0639438344769	-171.243324581696	-49.7470301854926	175.905824112831	-22.4557879089276	-178.849601579519	
32500000	-6.86652335009422	-80.2821612012654	37.7494543299391	-173.782372316876	-43.24944367897	-163.130999376084	-20.0941435626931	129.052667031251	
