!Keysight Technologies N9926A: A.10.18
!Date: Monday, 29 June 2020 21:08:31
!Timezone: 
!Model: N9926A
!Serial: MY57271140
!GPS Latitude: 
!GPS Longitude: 
!GPS TimeStamp: 0001-01-01 00:00:00Z
!GPS Seconds Since Last Read: 0
!CHECKSUM:1437879208
!Correction: S11(ON U)S21(ON U)S12(ON U)S22(ON U)
!S2P File: Measurements:S11,S21,S12,S22:
# Hz S DB R 50
500000	-2.91986321533833	6.67506880511274	-24.3039510916685	-148.77914718045	-56.8075647020158	57.0490292225752	-0.382051618055494	-77.4804297978812	
750000	-3.46197958468636	-9.73352077810608	7.11258742602707	142.966098855925	-58.0958078357065	-77.9727103771442	-0.766394403341757	-110.891047809676	
1000000	-3.4337825105695	-8.81703234929795	18.1580308268126	8.17756993057536	-61.7485365941158	-54.1945685320647	-1.50327617757039	-140.065861845264	
1250000	-3.48206691513955	-19.0766992216494	24.1303034138989	-45.8674128447434	-57.4490408057245	2.73243139776424	-3.66561357390843	-167.838572006646	
1500000	-4.26410110541815	-23.9764321023088	28.7055853276466	-100.95937625991	-56.4585026346272	-86.9203004578764	-8.31055517293544	-166.905790181133	
1750000	-4.35481425776023	-26.0797870665824	30.0385429711802	-145.092651254907	-52.8767779983242	-109.703135640491	-6.19702121169128	-153.682490846221	
2000000	-4.30845229364121	-29.4441501695612	30.4118986417668	-173.706112511482	-63.3233527344872	-109.315457412652	-4.69429348140313	-167.280980287709	
2250000	-4.14111349164891	-33.7874441636079	30.800532955815	166.799108582996	-55.5139697824531	13.1571864706257	-4.59378145627406	179.173651220502	
2500000	-4.461137271726	-38.5981199235081	31.3735416739489	151.399474499882	-55.5261134160298	86.711216230154	-4.5374059625777	165.991298986514	
2750000	-4.58488467260583	-44.0556850558536	31.9391035444183	139.22424939137	-60.5871627614807	59.8379369743067	-4.69104331018383	155.855274292671	
3000000	-5.45772071250739	-45.2892019863462	32.4017564005277	126.343758902191	-46.2890132319735	133.740414480301	-4.95503584503705	140.374348386248	
3250000	-5.46354914049226	-52.2802687715948	33.0189031463468	117.416017410437	-52.1790317971621	101.796087174479	-5.74934025921401	134.705877193914	
3500000	-5.67678366957949	-55.091893760902	33.4532626576413	108.624127785161	-49.0138742353156	92.9212228772148	-6.4879061246243	125.398229557458	
3750000	-6.95063398771341	-60.5120644836603	33.8873770428452	99.2920064795392	-51.680205674969	156.264152540591	-6.31216237188606	117.951889521867	
4000000	-7.18581593737552	-64.299683199893	34.256851958084	92.2195857910971	-56.1678827078528	134.601931955713	-7.25282776569471	112.033787900816	
4250000	-7.03997066374957	-69.5528883431107	34.6177874591586	85.239432341341	-53.4680166040677	46.9347886952685	-8.53469460363443	108.186526878408	
4500000	-7.41413776620138	-69.4050110265338	34.8651237645401	78.521671590807	-49.0543802665557	74.9410252435109	-9.3764393626439	97.9412472190773	
4750000	-7.85726234881888	-68.1030231301137	35.0641559532516	72.4963469204023	-48.071289363411	89.0462745351872	-10.3345386832013	88.8897736338913	
5000000	-7.80530094219351	-69.9982987294448	35.1658840708259	67.0305362269109	-45.4527713650252	79.4708094162696	-12.1386362539373	79.7617595317342	
5250000	-9.33219681760544	-70.0576847348546	35.3722705659731	60.9545986372189	-50.9165481416448	99.505811429816	-11.5507612542531	76.1828047316458	
5500000	-9.27181660869655	-75.2033654604952	35.5514792570822	56.4096401482186	-49.7562633445283	68.3237910346061	-13.1401615845183	73.9628854029765	
5750000	-7.59375281882407	-85.7098373410323	35.9147164331221	52.2522906267821	-41.3495761375625	43.155542463981	-19.4195897806809	80.2004644008821	
6000000	-11.1358464403758	-81.694624567423	35.792772295121	46.0227991826714	-54.0524433736422	9.17841672483044	-14.0123454588449	72.3216924141358	
6250000	-9.97401173648029	-81.7570076604877	35.9087206202712	42.5778803059976	-47.6116096666835	56.3387106975581	-17.2351051986368	57.8638314150033	
6500000	-11.2644289239567	-79.8339982217607	35.9888517746128	38.1381138279503	-52.3630424590093	34.8094007461747	-16.6108558741081	57.22339813815	
6750000	-11.738184769658	-91.8258081717559	36.171917433685	33.7711323253323	-46.3393836665272	6.75145907405037	-18.7829713823631	73.5709537220517	
7000000	-13.9558136365564	-85.5017878735658	36.0816977586998	30.1104605905092	-49.0352668329626	-26.794596657259	-17.305460363278	65.0366104943054	
7250000	-12.3026269733267	-105.617343970203	36.3899875184468	25.962492136208	-42.4327023890735	3.05023579695099	-21.6284366766081	100.475797964855	
7500000	-11.3390840571895	-93.3269905726989	36.3457863505012	23.7769258937696	-45.0466592534562	32.1146783732915	-30.8388419797541	28.3515486027997	
7750000	-13.6226583568728	-86.9285959487341	36.3389003944724	20.0807445312045	-48.7956702512083	-4.74628082368505	-22.9792968709268	52.1256581186842	
8000000	-13.3140032347652	-87.1081573649186	36.370945219782	17.0221347958766	-49.6636483052571	-0.725734332461496	-24.6436980273046	33.6440003461563	
8250000	-12.3096270881887	-90.0406701144387	36.4544650781247	14.4652276774049	-48.1310650456501	25.7383108823264	-31.9197585596626	-10.9878706596071	
8500000	-12.5864721209053	-95.0421310711017	36.562035026554	11.3513767544247	-45.9876483146901	26.9428139318016	-32.4450299601436	-95.2964542986981	
8750000	-12.8206795083994	-96.567837398476	36.5716717564724	8.14440986124876	-47.0507130035322	21.1785240972036	-33.5255946827514	-88.602960577435	
9000000	-13.0700477195525	-109.154402170866	36.6480528692974	5.02221626700329	-42.8029147553895	17.0379130485458	-24.9426361112494	-165.86622269572	
9250000	-12.2260173009405	-90.1318775595522	36.6443416957606	3.34002652841355	-50.137907360817	36.2913486154266	-25.6999573891036	-92.8388324369906	
9500000	-15.5671760196091	-89.9268125541401	36.5115261241511	-0.0872800822137101	-46.4553197637206	-20.4051405841991	-41.7874613895901	113.92549709309	
9750000	-14.5324816087409	-92.2570444828986	36.5945189948094	-2.22532667549414	-47.635903698749	-4.9220736462656	-31.7699187861456	-132.553198774352	
10000000	-13.5835796545216	-90.5250538698934	36.6225432026667	-4.78426586159685	-51.9892546862961	2.87431252237062	-25.7220221118482	-102.747330169815	
10250000	-12.6925288754576	-95.3628788410363	36.7328070220265	-6.87894504124958	-50.6413029165979	29.6036616457015	-21.6771194858366	-123.169932546738	
10500000	-17.9589525139337	-129.686992597277	36.5936001907379	-11.3482024163978	-40.3536432223978	-3.97231218908752	-19.0160154989746	153.786261127007	
10750000	-15.4957179420588	-100.607179083243	36.6993793580176	-12.4127219875542	-46.1817433065668	-2.1970458339449	-22.6471713841612	-160.792303636307	
11000000	-16.108851223027	-101.939918649786	36.6898931421149	-14.7155707425897	-46.255303559284	-8.45366402607536	-23.2675327338483	-156.383363326013	
11250000	-14.1895694528118	-81.698544816433	36.683059038885	-15.8959380234803	-49.5094358997572	-54.6660158522877	-25.1516679080368	-108.315004395207	
11500000	-15.769248915805	-110.540311831738	36.7864323930152	-19.5014712346723	-45.4818184755775	4.68452738040138	-20.0332856666515	-167.172411563748	
11750000	-14.8351053091732	-117.901349045475	36.8013232609638	-21.8463673749712	-45.0305181178469	17.9017432181823	-17.9413736982392	-167.856273546524	
12000000	-15.1480013107155	-108.604618798092	36.8013745683151	-23.4991881114049	-47.3169481323509	5.09915575138318	-19.2628418603931	-159.697728417869	
12250000	-17.5553306952055	-90.66553467173	36.639185902168	-25.4069046744363	-45.3359731845926	-33.986726837639	-25.3080321410283	-163.838654259671	
12500000	-18.6321485751854	-118.998137471679	36.7256333114021	-28.4689614314044	-43.4078172647372	-6.79419175526327	-19.0679811615648	170.826173946989	
12750000	-16.7601201761562	-105.720403075707	36.7841606119115	-29.9366920863041	-46.7915006505691	-15.3335670946893	-20.1021709731457	-170.422282755074	
13000000	-16.2166658416478	-101.980392844762	36.8114314786642	-31.6128221076528	-48.6014133586752	-20.222883313303	-19.8712221270408	-161.235841004554	
13250000	-14.5219131613873	-120.902006125231	36.8812845615534	-34.4270013862148	-48.6974802404048	29.2433905261748	-15.8205223259601	-165.716672876525	
13500000	-16.1801425637404	-84.3125233136065	36.7332385941023	-34.9328632687105	-45.3288685912341	-57.5015169148098	-24.0439326090787	-145.652431825509	
13750000	-16.6536365273755	-89.303745690789	36.761596168397	-37.1566484524003	-46.3299117226076	-52.809817790823	-22.271821287245	-156.687356338015	
14000000	-20.0661726378169	-136.134365613912	36.7512512499437	-40.8507692158106	-43.5234190044882	-1.111842632578	-16.9643307375678	163.637395779204	
14250000	-17.6750965852733	-102.081292028692	36.7736775763526	-41.6538986920574	-47.163655477863	-36.3084050741243	-19.8734206191958	-173.430699276923	
14500000	-13.714862000847	-95.4263264899817	36.8924476763613	-42.750999329994	-49.4135956852965	-98.6352044695451	-17.9256651061014	-138.129253275962	
14750000	-17.046247392317	-89.0905014145649	36.8108116627507	-45.096262220675	-45.5552011718026	-54.4232834278643	-22.2312734602631	-165.931930058765	
15000000	-14.9307601757092	-102.615435886794	36.892598502004	-47.0335622976791	-50.4103111153283	-72.2372485253003	-17.9562025233879	-156.731344745623	
15250000	-17.5888242399622	-98.6423646324671	36.7856803405556	-49.0625559397535	-47.1969368089383	-49.5240268940954	-19.6168510230913	-173.027773594147	
15500000	-19.7309322658283	-89.4125416326165	36.7869401856296	-50.7741981373407	-44.0393679021443	-44.1714188643849	-22.4925937174341	170.254173486095	
15750000	-18.9984609657165	-87.7466248421821	36.7557975292816	-52.1065317647731	-44.4488851834274	-48.502844085646	-21.6003137997508	172.75892607412	
16000000	-16.2555297844975	-91.286436452375	36.8357894418532	-53.700185857218	-45.254298090155	-68.9915554602099	-20.3574468745503	-161.869422335996	
16250000	-18.0802544607592	-130.664964852408	36.8474670928666	-57.1737167058898	-51.6155001893785	-7.02417886876976	-15.6586816986292	171.910855377883	
16500000	-18.6199484767099	-111.912443743572	36.8149800189282	-58.2493421071991	-49.0892293878844	-45.3210649773469	-17.88744285665	176.693004489841	
16750000	-22.0006385656068	-92.4369265136826	36.6858556582797	-59.6916338128269	-44.2647898366508	-34.2818461183966	-20.0450697653399	152.551061990125	
17000000	-14.1716305778167	-121.922636230598	36.9919292303228	-62.0342517493278	-51.1949882006695	-133.232324685102	-14.4400423186356	-168.813840324611	
17250000	-18.9730055200313	-121.301548964766	36.8000898786705	-63.6977422960314	-50.7392345985882	-42.1106189669411	-16.9201086762991	170.419795151435	
17500000	-20.6841691824083	-111.290941690318	36.7662638527717	-65.0731617715378	-47.3273770240784	-36.9036784052908	-18.0896555756551	161.731436127691	
17750000	-18.6180601319739	-114.51768789494	36.8599059374393	-66.9145999439623	-49.4884698453192	-57.7852778567733	-17.3824751045339	171.154419763415	
18000000	-16.4552530898557	-123.013079032209	36.9051935717913	-69.3511917688218	-52.6377476996571	-98.056631578625	-15.4615610923193	176.231757978049	
18250000	-17.5548667820697	-118.02443574449	36.8336710344293	-70.3582795072589	-50.5101610809999	-77.8275679378847	-16.5668529832207	175.897337196507	
18500000	-15.0320096858301	-109.687704662826	36.9613735394204	-71.8231249364973	-45.7922627701016	-103.036653389284	-16.4867655513876	-167.494959776789	
18750000	-17.0150054476367	-114.032256431312	36.8726909656986	-73.5746387296422	-48.5771295360996	-86.0334724360202	-17.2597812780771	176.199261077237	
19000000	-17.3061469224438	-113.662296305245	36.8827670426256	-75.4817467909318	-48.7141226484123	-90.5435311993781	-16.9434022443582	174.198754906209	
19250000	-18.4239348541962	-102.279003067376	36.7952446698113	-76.4017557537965	-46.1136330392249	-66.7465216150484	-19.4141650947453	167.796941961468	
19500000	-19.0986946016117	-121.518821460239	36.8400860724234	-79.0224607716213	-51.4711381736839	-70.2657083453562	-17.0942951213772	163.349170360856	
19750000	-17.9063395791163	-76.8774233881412	36.8179142671058	-79.0526576815123	-42.6170270508859	-57.5774043426303	-25.064716025892	166.531952770969	
20000000	-16.1044121122359	-113.79468106541	36.9073797411671	-81.8616037572482	-45.7645486042519	-101.036567722491	-17.0355371384652	179.511130702424	
20250000	-17.3700961758453	-127.943832936135	36.8740866394183	-83.6807071314092	-49.6271516266772	-106.841066229273	-15.6692347547087	168.03643744886	
20500000	-18.9484118359403	-98.2424234438802	36.836773180917	-84.8454795677222	-45.8606060974537	-69.6147908471265	-20.1116574328485	165.622024136336	
20750000	-17.4434954678123	-112.333846250898	36.8966669382534	-86.8729929025313	-46.3737067623412	-92.5667866673144	-17.9832600701409	169.452491101605	
21000000	-20.4182530497622	-96.5458442392489	36.8260365230369	-88.0876125217125	-46.4694580543062	-59.4824840757241	-20.3358499985349	149.951313850765	
21250000	-22.3780751389364	-95.4595851323811	36.7072193391242	-89.6415996442656	-47.8592788727064	-46.4652620589148	-19.3457132473633	137.174871238613	
21500000	-14.5521293323808	-128.853688524729	36.9786901577535	-92.5354834499783	-43.4030431481437	-124.338842365594	-14.3077760505147	178.186466925107	
21750000	-18.1511691048003	-115.474019950787	36.8977482074352	-93.4386760460701	-46.8598598751499	-93.3635117901552	-17.814630729529	162.963328240093	
22000000	-17.6098569413629	-107.546048814941	36.8752228961801	-94.8962772598364	-45.3398084458608	-85.033367407842	-19.0793391856946	166.105577627892	
22250000	-16.4744704741823	-99.2980693282842	36.9152036745886	-95.7594402817384	-43.8554492220342	-80.3864187463837	-20.3227275145687	173.103516700934	
22500000	-18.8182050971688	-107.985777274236	36.7759293510758	-98.0363385941467	-47.1917161433807	-78.4201645701481	-19.3946798649665	157.754950489942	
22750000	-21.8466940446928	-134.478455920353	36.7164675314547	-99.9600062862471	-53.6526696884796	-106.673775075097	-16.6653084482474	142.711734048145	
23000000	-17.632748253146	-127.772871372167	36.8280131984177	-101.775894738199	-46.2787056679644	-109.191321261565	-16.886508151863	161.344686860744	
23250000	-19.4493285922679	-122.129764925211	36.8035670511516	-103.093192757018	-48.0532698927683	-97.8877827104164	-17.688974293535	154.015659066659	
23500000	-22.4350199979444	-118.065516682444	36.7463695514934	-104.484467814828	-53.2136413188098	-92.7449575445777	-17.3971070671633	135.453935258404	
23750000	-19.5835301613547	-106.231345708025	36.8228797944435	-105.979650775743	-47.6684941685181	-79.3777874285793	-20.0844702088084	146.855190605395	
24000000	-16.3759758072167	-122.579361368558	36.8850174205908	-108.54007103464	-44.0217217897167	-101.109685336826	-17.3325284507596	168.512323505548	
24250000	-19.5312923921352	-142.843838955737	36.7526725445123	-109.778515945012	-48.0052667837793	-125.404546059847	-16.1996205658178	145.774160232946	
24500000	-18.7794318816293	-113.501033707467	36.8356926065407	-111.297498759168	-47.5496730183482	-90.9091151799136	-19.2561106520694	150.046944374891	
24750000	-20.2155369012087	-113.365027017026	36.806262926142	-112.817766879643	-49.4493480514473	-96.0441164232353	-18.6296429414115	140.097858009367	
25000000	-21.6102328464831	-112.838673894953	36.7902388124592	-113.842565468836	-51.5379019763273	-87.5006505012622	-19.095521940025	133.700064211989	
25250000	-17.1221028568647	-100.33583889199	36.9282485322625	-115.486515674621	-44.9848935000344	-73.8600778228483	-22.461029119242	164.924027033108	
25500000	-18.8010296865915	-109.61066649585	36.8733621671035	-117.414243990057	-47.1992906005098	-88.7099266363065	-20.5459142608892	146.865523409556	
25750000	-20.6247616471285	-118.747600931504	36.8149447784931	-118.922424042747	-49.9821159825776	-104.403309432236	-18.6921327501614	136.557585810475	
26000000	-35.0402396878191	-147.292656182455	36.6188266836713	-120.089123734476	-56.0591883014286	157.996928902817	-16.4369077246082	111.496947746337	
26250000	-17.1592876990188	-125.238723224751	36.8718787923164	-122.669075495175	-45.0210766929921	-102.055172090732	-17.9895067428791	158.551576527047	
26500000	-19.0355278294098	-128.070937562162	36.7721850665855	-123.932070069389	-47.9348048716592	-111.508805929449	-18.2758876454965	143.860772227178	
26750000	-19.4419443449378	-158.877188053355	36.6795093167428	-126.100774249358	-45.3775225310083	-140.320287469735	-15.2855971754565	138.720222544018	
27000000	-18.8608941311459	-125.101401415421	36.7843198623138	-127.42844214785	-48.4222505636318	-105.506931320031	-18.9066990686523	144.716207809252	
27250000	-19.5549300035457	-139.21368711879	36.7335849112078	-128.889955022706	-46.5098512792257	-123.116186755299	-17.5436964974384	141.199137305738	
27500000	-18.2030478349185	-176.200534764794	36.5651001445497	-130.905805947533	-43.0013669113341	-146.683943739103	-13.8434768522846	136.467241254267	
27750000	-21.770273595483	-153.192696309093	36.6692671401684	-131.892440338379	-47.0572060012795	-140.2627185345	-16.7668439156387	132.454153620727	
28000000	-20.1363046542004	-169.926244907871	36.5909674916115	-133.915934093674	-44.3756699689455	-148.845659338449	-14.8472631606798	132.353564506813	
28250000	-21.8673953892414	-150.777703725031	36.6895613070167	-135.45418376522	-47.6318965790874	-142.409386919256	-16.7957298166367	129.623696761281	
28500000	-19.4384771512528	-169.4887874279	36.6079380198073	-137.483761812999	-44.2302414740689	-143.538637106334	-15.4316444115312	134.07441553339	
28750000	-18.1403407983547	-134.538934996169	36.8084214716102	-138.710586978125	-47.1976673699001	-109.944277741007	-18.669298926169	147.391485927139	
29000000	-22.1509821109807	-143.309825649236	36.6833743731826	-139.901097876924	-48.7636994769666	-140.739073372981	-17.7631375013543	128.583536923397	
29250000	-27.3825838053483	-156.711631332133	36.6459922077556	-141.197171596702	-49.1420210099968	-165.735269206849	-17.4348085460114	115.417245471369	
29500000	-36.9087276867239	-172.268735092875	36.6709809092325	-142.262128359779	-47.6118448675668	170.614506115544	-17.0501696130209	100.90138836966	
29750000	-21.6606022087714	-165.723862862522	36.6211433682214	-144.960927515649	-45.7270347830039	-145.360332184851	-15.6824807274616	124.636605471588	
30000000	-17.035330012293	-164.315390522699	36.639044414572	-147.396728955304	-43.4515096306037	-122.732361924149	-15.2832854828467	142.87542702053	
30250000	-20.7322300448771	-173.447178214372	36.5686437109335	-148.167094855475	-45.3590293667346	-146.764529383248	-15.9448171835403	125.969052956501	
30500000	-24.53736227044	-139.014249153981	36.6360954663548	-149.491951791382	-50.4215753232693	-147.384984061733	-19.0414760030142	125.763825630973	
30750000	-21.7452678890333	-163.652251829871	36.6038665860635	-151.572322280498	-46.8256054279416	-140.644960938426	-17.0036967103364	127.998447342553	
31000000	-27.4350835560362	160.666226640997	36.5479045596344	-152.539059256431	-44.9426858164732	-167.791291971972	-15.8458398965875	110.92469273352	
31250000	-23.9637881365752	-163.525459407053	36.5865962383627	-154.443425717045	-47.8590251923956	-155.451192515865	-17.2301614434079	117.894746248067	
31500000	-21.2294824108479	-113.943612854944	36.7249061016431	-156.123959469742	-63.4626408271085	-139.997932097095	-22.0833071776276	126.7032376955	
31750000	-22.1351682108021	-150.736971129251	36.6773912048065	-157.754941685636	-50.251459827032	-136.684170920578	-18.9882240873152	128.278252540105	
32000000	-20.0572929765791	-177.034685344125	36.5895773288828	-159.825042232108	-45.6665327162798	-131.072763037838	-16.0109205394843	133.107901595796	
32250000	-19.7542143134747	-165.537312988679	36.5770458735734	-161.53039866487	-46.9877050978988	-122.759582346706	-16.7023903423614	133.607192477824	
32500000	-26.799066684041	159.760585368216	36.5769203923629	-162.317773769702	-46.4749750260925	-165.439411240125	-16.9849531362144	112.731505222345	
