!Keysight Technologies N9926A: A.10.18
!Date: Saturday, 25 July 2020 18:31:16
!Timezone: 
!Model: N9926A
!Serial: MY57271140
!GPS Latitude: 
!GPS Longitude: 
!GPS TimeStamp: 0001-01-01 00:00:00Z
!GPS Seconds Since Last Read: 0
!CHECKSUM:0284326131
!Correction: S11(ON U)S21(ON U)S12(ON U)S22(ON U)
!S2P File: Measurements:S11,S21,S12,S22:
# Hz S DB R 50
500000	-2.64759886736833	17.8676490326201	-13.8084374762626	-171.968726585496	-50.8745983108557	-75.3752580855367	-0.846797644957869	-77.0376597074404	
750000	-2.81051067605368	13.9795641024541	14.9041511040688	78.2723098638717	-59.131310260767	-19.3938941845665	-0.765211197262414	-107.566158277253	
1000000	-2.44130985716748	10.3505493399074	22.3122027613615	-11.461743955814	-51.1462848918163	-25.1164677812667	-1.89475693406268	-139.284427677683	
1250000	-1.9420674576495	7.80894168096035	30.5914162213484	-68.6113626123661	-53.1865179914262	-66.1186112154209	-5.18964023857352	-162.887123180958	
1500000	-2.36037207072155	0.177129287476838	33.9887346480104	-127.828306840199	-46.5605615338531	-104.15070710001	-5.959197539386	-146.130441221464	
1750000	-1.82059363257341	2.14791868708965	33.5635771277575	-167.887490331983	-50.694203306778	-40.5521087862688	-4.36421086298968	-165.80651967194	
2000000	-1.94846649774313	4.47908317999278	34.545281117484	169.262288919556	-54.9765599100767	110.035264448492	-3.8974913529239	172.991970262733	
2250000	-3.01408383012717	-0.280916810726768	35.1835393079971	153.065568474838	-45.8075672414744	-134.913404076716	-3.13376607959315	168.908002010393	
2500000	-2.06953621150767	-3.12622305229076	35.5105378514895	136.486521387432	-56.4156837246694	-90.3304733086161	-5.33661220784042	149.600495354262	
2750000	-1.7062951313835	-6.57112880458843	36.3155510284575	122.914073442539	-58.4205777428633	3.91465914799206	-6.98472793376307	132.345719468091	
3000000	-2.96042849634267	-5.91398993859828	37.7290914363882	114.622979603386	-47.2762921278928	-104.774108138067	-6.262860389135	133.452754969511	
3250000	-0.617550859032502	-6.31403910240647	37.3219666149448	103.833849380337	-47.3670321771104	103.368014151499	-9.65088528945918	88.5775542831702	
3500000	-2.4405405629167	-14.7879130916955	38.3472688729589	93.50895553246	-47.8408919678309	-25.7109080661572	-13.6806084765095	130.61361391626	
3750000	-0.81822259425077	-4.9122440958645	37.936235846001	84.0059312121626	-47.252984062252	155.585992371533	-11.9907041152311	65.3925275799879	
4000000	-0.330579958512985	-8.17392935353488	38.4116952940022	77.6496808953676	-47.6622100925692	117.567081127512	-15.1416100060485	37.9863695543404	
4250000	-0.978369312225422	-14.5402077394583	38.4596215593684	72.3202960621668	-49.7503329169531	88.6297252592739	-21.2322060804951	4.56282520343098	
4500000	-1.74861289761835	-14.9704247300314	39.0112732418189	60.5672625288537	-54.0094388864122	117.266928085518	-22.5075254735769	67.6656934956905	
4750000	-2.48748202192903	-16.8472920821859	39.4027695690668	56.3781137178215	-48.837457257626	14.5427009826884	-21.5828650231005	-153.165979741823	
5000000	-3.79274699873032	-15.7341711683438	39.5592021161234	45.0242145642245	-41.6111667553452	-32.7171700426442	-10.0180618033227	178.386311288277	
5250000	-3.22938836887971	-8.4464741102188	39.0407984168465	42.966734186061	-44.1389816547767	-75.8721117933301	-14.9645537515239	112.649725326734	
5500000	-0.874162421322454	-15.6506414441257	38.6895791820227	39.1397414943807	-46.5790299037487	135.477979796225	-20.1159671654109	-67.3441812875745	
5750000	-0.854608453892516	-14.1924609929954	39.0853337521424	38.0219763940442	-44.2854267139155	170.45057539524	-15.8218086275553	-62.4652528932511	
6000000	-2.9472487212737	-25.3184635516545	40.0747993408415	29.3413538750997	-46.4259185224891	25.8652485479383	-12.6978952358613	-170.630819776026	
6250000	-2.53701343162462	-24.5372398651663	39.1306271163433	26.8524813299456	-50.5333040555762	31.9772302009701	-15.1563922063562	-169.446159227031	
6500000	-2.87892049777688	-24.3759695227045	39.9033283073669	18.3896225358005	-53.9603584533071	41.7945711703394	-14.4422667808283	178.19827537477	
6750000	-2.1355957700533	-18.0229544382155	39.7650150158906	18.7427489345877	-52.8413060903545	-104.272854416288	-18.7070653368387	152.690647301391	
7000000	-1.75867315393942	-12.5890807429895	38.9673875795195	13.0757328078133	-48.4286292941127	-107.968697846274	-17.0699924891143	134.568375777973	
7250000	-1.46914656490871	-10.0850259924518	38.6422429953719	10.7958832045337	-46.4744744878123	-112.17487925991	-21.0942661399316	118.424752514671	
7500000	-2.22975412065028	-19.0816100417407	39.4662883047945	7.65691165268395	-58.9460555506177	-46.9400180598121	-12.7111558023616	165.992798970246	
7750000	-1.96393312933303	-24.5880215121636	39.1873998035396	6.45778765778891	-56.42943709604	87.8527652985596	-12.9829596938865	169.054917585251	
8000000	-1.96750004286826	-20.5128939467531	38.2698478912373	-0.93333004877578	-57.3271297683336	-162.330769675794	-15.6791741238558	174.873290119932	
8250000	-1.97332134189566	-32.7495320138516	39.4610681828695	2.11053204195649	-42.9419653954667	76.0129122379361	-8.16177878177885	-173.189075056184	
8500000	-3.29540063165474	-21.501165901257	39.2118476882302	-4.83198896533079	-48.457991663829	20.624862805485	-9.68532024710022	157.25128450633	
8750000	-1.89552070340936	-26.5090867867293	39.1129402639075	-8.3373025902878	-55.8070579883967	-160.4868062212	-13.7647584095655	158.558227406782	
9000000	-1.29971088703671	-26.7766454782666	38.9815794187388	-10.1978389991076	-45.3761300299172	-151.595096663819	-21.3132847711349	160.934694793122	
9250000	-3.3911316089428	-31.3902664236255	39.3435304686975	-14.2500906929037	-50.4632400961358	49.0999166155281	-12.2298275992688	158.496420108655	
9500000	-1.19203273789494	-30.2899094540319	38.9493418267056	-12.085250296745	-46.3217245114558	175.706701196914	-16.6955781122924	178.658293999847	
9750000	-2.08567313174571	-31.4372963929063	38.9814853114502	-15.0820616923647	-49.4314243705919	137.702031087374	-14.1293422571939	165.501644171109	
10000000	-2.88623997496832	-24.4951196620421	38.6895436321081	-21.1635481396531	-47.4721494009255	-18.8932747969064	-9.91375004096753	137.125337076421	
10250000	-3.24258102065623	-24.859170835609	38.9063347369019	-27.9544353790213	-48.1256556425265	-1.21906482567471	-11.3462692603501	136.267382889834	
10500000	-2.90716799681709	-28.6700844308048	38.6041855928513	-24.4206868634369	-46.3984523519276	-10.6557723460185	-9.24498379744262	136.51458899212	
10750000	-4.60898545606011	-39.5464209201055	39.5003353309856	-26.7754616154743	-40.5520181438242	46.8580521960507	-5.56795131585218	144.150395629633	
11000000	-3.06381744156588	-24.1568855172154	38.9051685210344	-30.7207821087025	-45.0558146293257	-24.5202343597581	-9.79923656937218	114.592232354106	
11250000	-2.30308440209623	-34.537604452437	38.9596584314424	-29.2828820553976	-71.0582590149797	171.973525738358	-12.8780502827936	140.208773492582	
11500000	-1.68829024971729	-39.120525662527	39.054807971929	-30.1676329057356	-51.0194004454173	135.541790238563	-12.5743020592064	153.566227753583	
11750000	-4.19277336103288	-41.0728472179544	38.788155860555	-36.3482979641521	-46.2972772864441	68.8979733983316	-10.0121892371836	139.836548546532	
12000000	-3.3999878428303	-30.7249379573911	38.9619345075829	-37.5861730407457	-48.6383196709825	8.12280813450453	-10.0364933689905	112.294765547788	
12250000	-2.44820778463115	-30.5296832261695	38.4702733170692	-36.9246732710288	-50.6625033568015	-25.7016262044866	-11.8557376957864	109.887120284735	
12500000	-2.37731247846434	-38.354817305874	38.7923699201506	-39.5560678893055	-73.3990510296972	-115.900459403429	-12.3210501838855	123.850897574768	
12750000	-3.05195893788502	-38.4206907478727	38.8158054061415	-44.0974689449094	-53.316518259976	41.5039637641492	-11.8791020386816	127.857329612902	
13000000	-0.933273542900064	-38.4828566624744	39.2174898821422	-39.5290745098829	-44.6268792808183	-122.028643859459	-22.9644901997119	98.3975919379467	
13250000	-3.86290372264284	-44.2170159275294	39.0664009305302	-48.1813671038971	-50.9131677596267	54.8459700572901	-10.1066151095087	124.861077851064	
13500000	-4.15793766506764	-43.7531289607943	38.8324634377158	-47.9434140536385	-46.1893246643067	86.2637588691728	-8.6320737947745	142.007925967898	
13750000	-2.19520283549909	-42.2604228078749	39.4632069996205	-48.4206220427136	-51.3891962713091	-68.7425331314415	-12.5822847907044	87.8066980016551	
14000000	-4.06924337641195	-42.241251280747	38.7058994702693	-60.0179125262753	-50.5221674796927	-20.7210540680084	-12.1649569470731	97.8254094396306	
14250000	-2.23021644486844	-43.5512700453128	39.328300564805	-52.7752919474407	-60.4336715524603	-66.2721357004396	-14.8372007213129	97.0878694077257	
14500000	-3.6588372220622	-43.9691553836108	38.5528608587605	-58.3105858974282	-49.401892697103	52.5706870803561	-11.7162826569994	111.47900435117	
14750000	-3.41978091260997	-45.7350361887755	38.9263348817096	-58.7749603974599	-50.9523927562252	40.8832042343132	-10.1250267829547	109.171623368029	
15000000	-3.68374176051367	-38.658201824925	38.5752526005173	-59.7410827928411	-50.0421519080023	-18.7715289484	-12.5672847981923	99.6436389438025	
15250000	-2.92709441837237	-49.6085635999068	39.0906191192809	-63.5915934628915	-58.2524249946369	-75.8537202250989	-14.9103841178292	102.808483477792	
15500000	-2.86266325833081	-40.8449114198557	38.9456496288951	-63.1564303304708	-47.2974331773185	-9.74157819959225	-12.5181862087919	87.0122693336604	
15750000	-3.19427930458465	-46.5342087740834	38.8865245944154	-64.6094624625156	-53.584534857958	-13.1489700157394	-12.9500325357351	96.2600339525091	
16000000	-4.39053996505699	-55.8376359875345	38.8585451614045	-70.6540181166298	-55.9116275154898	98.3934339668088	-12.8900852937014	110.083440713369	
16250000	-0.740368585006878	-65.1403012921954	39.3168170427185	-70.2968983072955	-40.7976586376549	-135.070235733053	-24.3772933734604	-167.333952567991	
16500000	-3.20796720289211	-41.7542084234065	38.6041306389824	-71.3720263717168	-46.5973305557162	-22.9549569880208	-13.394946454635	73.3681921062192	
16750000	-2.38109472952881	-44.6921339005097	38.77396085558	-71.1448205906314	-41.3858411475349	-44.4912500734052	-12.3323804630601	60.404273259887	
17000000	-2.7230398061393	-56.2220402707068	39.6167396623661	-75.595275688546	-81.7022869895585	-27.9140471442204	-16.1307633209591	104.376958393704	
17250000	-2.90481554788465	-47.4612074947648	39.2756371302163	-74.9657026820311	-46.1060962054519	-35.6296525703648	-12.2990130631348	57.5896270697472	
17500000	-1.99402383010126	-57.271468650299	38.9079541089139	-79.2061652563988	-43.2348197529634	-78.0473791150786	-20.6739306671291	33.9772317006663	
17750000	-1.51535859233745	-60.018664775015	39.2151751252776	-77.608915085961	-43.6209712320054	-95.36907522632	-24.9628423869207	37.3702102259723	
18000000	-3.82208141894191	-48.0402927617247	38.5642053848928	-79.4399879496095	-50.6039124455079	15.2239597732175	-14.6938165175584	73.1877427793927	
18250000	-3.71251389843865	-51.691077753543	38.0146050245487	-84.524488061451	-50.2769721132505	-44.396023045871	-15.1992649383706	55.9442918642644	
18500000	-4.35574645494613	-46.6268707878984	38.9529936509989	-84.6276170472402	-43.6196717850498	16.1308115882639	-10.0320322170061	54.6699713221222	
18750000	-1.04596534667215	-57.7726552733123	38.9992661943264	-85.9330772203566	-39.7937362596262	-90.3038114348254	-17.0522863649088	-23.2154811118567	
19000000	-3.54831468959846	-56.6170429731239	38.7832397421276	-88.0524709221271	-50.9907392882598	-41.156958400341	-18.1017907793489	66.6448426282328	
19250000	-3.88224012435703	-56.8181064149901	38.7055729597906	-91.4763568902654	-50.8634094599692	-33.7460314012223	-14.664245174354	56.8576895172919	
19500000	-4.72294231751224	-59.9525388649618	38.378264624137	-91.9121139343283	-54.6997562544955	100.848865279487	-12.6553307173351	77.6410171528203	
19750000	-4.6991756303326	-42.1804509812243	38.3409618609972	-92.6318350539941	-42.7245381304124	24.6053958379315	-10.0640400659237	39.0326104233522	
20000000	-3.13587044333524	-52.499230532621	38.6230793827152	-91.9798451729123	-44.3231824660885	-28.4413868918237	-15.1245396792578	41.0253531874735	
20250000	-3.03655167111208	-60.8045156834935	38.4833879935817	-95.1753009082209	-48.2635869965056	-53.2478978845835	-18.5562476273798	35.4742816472903	
20500000	-3.61252732642589	-65.5076775835614	38.598706249657	-98.1660648320926	-45.6323495598853	-81.5332195004053	-20.749407847501	10.4274141867344	
20750000	-6.12700541129787	-60.1858720999501	38.2831591111168	-104.950178111791	-50.375347393003	86.7323654162931	-15.5904455024817	71.2888031035257	
21000000	-4.90557179110066	-61.7192955282453	38.379947272167	-103.024689479614	-58.7657144213894	150.397099597463	-18.3315982336266	40.6270200053213	
21250000	-4.49548927395088	-69.0940981725774	38.8056360398683	-103.012221694097	-51.0108944542176	-113.561221351551	-20.3937532894034	64.5363285812437	
21500000	-5.47281461051459	-67.6075981788312	38.5266883694737	-106.010484011861	-50.2974299846554	-168.570715258609	-19.561609884416	95.2833817616717	
21750000	-3.38811623651554	-64.0167499420528	38.6436838189434	-104.840080069423	-46.1685592027448	-55.8156276018762	-18.8339063002235	-6.2797242917622	
22000000	-5.01913614829918	-71.7038450891592	38.6725370657427	-107.47962663796	-51.1404873192734	-141.753698601463	-19.9052292840402	93.3911285525803	
22250000	-4.93956172581255	-83.7561356601378	38.2122565128959	-112.46900224468	-41.3016589515207	-144.258089846719	-19.6296799344357	121.901237812613	
22500000	-5.06325930065427	-65.5922764511798	37.9886571879804	-110.779202660349	-59.7619939812399	-77.6418042831533	-18.3712190436342	49.8545176028723	
22750000	-3.55731550175971	-60.1496549123791	38.5998873014141	-110.506654575798	-49.8585688686659	-10.2153361074014	-17.5970477359239	10.5379575213273	
23000000	-2.87992535202288	-68.83670596148	38.6951122253272	-114.469550596505	-44.1507906707058	-65.5716116124736	-17.9111541923082	-45.7535034057462	
23250000	-7.16734863280618	-66.9235630005719	38.4178851755537	-116.11960619726	-45.1725866549652	136.976088584791	-13.1725202060257	66.3328248220772	
23500000	-3.58605364348381	-59.6211529844503	38.2918504427063	-116.189087538904	-41.7127442062576	-20.0858633730371	-13.917776771561	-14.56302027089	
23750000	-6.00601931596951	-52.932846105407	38.1887977815024	-116.522802449791	-53.132658545177	88.1071131766129	-16.1320871990117	30.7161318026266	
24000000	-4.69291683670136	-77.5879496146136	38.8383225347828	-121.838176946034	-51.3678131942705	-138.815295623207	-21.6765518414186	7.64965605270976	
24250000	-3.1573388820234	-87.8678599303381	38.2520349282055	-124.694709945496	-41.6217895258985	-108.005703782398	-23.8438617646326	-142.283530655255	
24500000	-3.47861581375571	-69.4613892559284	38.8408939461528	-125.176748432828	-44.2805895714578	-46.5451724460711	-16.4935237279598	-47.7769979891168	
24750000	-3.7233097546046	-72.432748176044	38.5996088343589	-125.939821997086	-44.403230698645	-68.4554784852704	-19.226477689301	-72.5880767968839	
25000000	-5.46636952435535	-77.6927612275153	38.0588223604219	-124.971305749249	-44.4937054670679	-123.573117982591	-28.7858739969837	-120.466049676179	
25250000	-2.88499203701894	-59.8421446216367	38.7588264668883	-124.800688000936	-43.9420104442713	17.3997474133083	-14.1552040779331	-17.0404660534913	
25500000	-4.35476350317416	-78.8351646603513	38.6547137325672	-129.116424166566	-44.7523373119685	-89.9802469076315	-20.9436095814268	-83.1223452020541	
25750000	-5.22204633319108	-63.8691329330094	38.2970983786401	-129.540694497662	-54.1197410721853	140.695608394949	-27.0613108291561	25.7744935838781	
26000000	-4.06438314906391	-56.9021088767004	38.2474777165893	-130.011246136797	-43.7000682182698	64.4800847212508	-12.9178278343902	-2.01729382211399	
26250000	-3.75886368973459	-81.0153006842458	38.7841226381356	-135.001190121819	-41.9782191520962	-69.8298223178995	-13.9854666725438	-100.111126062946	
26500000	-5.43586110162942	-64.2407812103669	38.0407267645062	-137.754733608596	-48.7876868403797	55.1682871969129	-16.7509872928794	-11.4226043980092	
26750000	-5.45925942389751	-69.9791515495713	38.0299575986173	-139.392015841589	-57.7667853352364	29.1145469553562	-21.015763170303	-22.5836705390056	
27000000	-2.18154954755275	-68.2026251720358	38.459458661883	-138.04242603985	-38.1910974611111	-3.43013395820548	-11.5009433736603	-67.9876085465777	
27250000	-4.73943579813196	-71.1625017676673	37.9634596145429	-141.183513816176	-54.2417970183458	57.5518981660135	-23.3250290709916	-42.0855489401867	
27500000	-3.26448302181239	-74.7523281676952	38.2041705164538	-143.744038365226	-42.5574394041638	-27.5352380726067	-14.1270306073476	-76.5117531676463	
27750000	-2.08686735984672	-73.8508942517979	38.7045526249886	-139.677622107664	-40.3725736303415	-27.0712897102132	-11.556308475292	-74.2767393484349	
28000000	-5.5318863360973	-79.3924209374048	37.9635960953022	-145.310215564605	-50.2231524099385	-108.841405003136	-24.6924311479408	-78.3588190636532	
28250000	-6.8020848455271	-76.3318201638602	38.0799840718191	-147.549475790541	-43.7314294392377	-132.404870458709	-16.1427238155342	-161.926644128501	
28500000	-4.6332105600264	-84.4457940087038	38.3834342343129	-150.846718070837	-47.3384369660646	-64.4020296255223	-19.8612745160601	-121.26011505198	
28750000	-4.95603886588421	-94.585591006028	38.38543215798	-153.265343581491	-41.9975403624828	-93.0340486872189	-13.3943018554743	-143.042826237618	
29000000	-7.24316814799138	-96.5456004485082	37.9608495283095	-154.403245936896	-41.9726843962501	-136.142079339855	-14.9082334504448	-179.302272319279	
29250000	-3.00520162003495	-78.5887506874498	38.1421210990514	-151.610359427038	-43.3431646029618	-30.6964318427424	-13.2759806887917	-77.7211042292471	
29500000	-5.31915309581847	-74.8421654115851	38.3476772043188	-153.995710262278	-52.2003272229669	159.708879830492	-27.3776965763805	8.42358573328173	
29750000	-4.53690208081812	-65.6281962995471	38.027420994598	-156.444296091735	-45.9993234884442	82.4560540294747	-23.3836486116547	-62.0693946480426	
30000000	-5.08022919887364	-76.1730384797447	38.1559546174655	-158.648837672225	-56.8016161291651	95.8642246208559	-19.1089132875548	-54.6141698996064	
30250000	-6.54357632161245	-85.9479157887838	37.7099741267893	-161.062592295102	-48.0113995965439	-126.181713266154	-21.3274785770906	-144.561933277963	
30500000	-5.30530474786017	-87.8596758132281	38.2160346842997	-164.183247699046	-44.0292334661323	-93.8442349894292	-17.8478278764265	-155.556932928192	
30750000	-3.76048295714955	-90.8541991303795	38.5806070026169	-165.940771128661	-48.3293114101676	-61.2666800607165	-15.0670664583467	-143.291269558603	
31000000	-5.92790618074801	-77.8133785135762	38.1415921239208	-162.993110103316	-49.1639220070847	178.348479469095	-24.8568626023368	-149.064399103942	
31250000	-4.46186857000857	-82.2496616442604	38.2612242271818	-165.109098012826	-64.9539389834032	-51.9154914455754	-20.8923376979489	-108.520307518111	
31500000	-5.23448305746499	-76.7626608982315	38.2961254552741	-167.94303628417	-66.5789692131318	-0.480129272289979	-19.8353947526673	-108.675868170719	
31750000	-6.18270323768693	-87.3790597916526	37.7617470482104	-168.68412806957	-49.2258623603565	-116.261049590463	-17.671389841706	-168.550007275774	
32000000	-4.28148429918454	-79.0561914359439	38.3338783633233	-171.723028109279	-57.9589879303762	103.468080087834	-17.0364309176953	-128.189379168532	
32250000	-5.93838241234798	-88.9418017132762	37.9887361729643	-172.833794787264	-49.7429876501511	-87.6183960664681	-15.8960400067007	-169.278980849615	
32500000	-5.99678468789468	-93.5514889135874	37.7434046967494	-175.735893876827	-42.4812559076032	-90.1608301299782	-13.7592562052093	173.423038700047	
